# GHZ S RI R 50.000000000000
0.000100000000 -0.129855493287 0.050126187584 1.073365141880 0.105183740667 0.931402396759 -0.019522659858 0.004533954877 0.118177012209
0.005965004000 -0.020681813480 0.008551287619 0.995447875304 0.009042574197 0.995616929748 0.004891599341 -0.020727500545 0.004949971820
0.011830009000 -0.002561833299 0.009126217723 0.995063599679 0.010683281210 0.995904164440 0.007040421729 -0.003178696731 0.005177610345
0.017695014000 -0.001350034498 0.009412741694 0.995635071751 0.009218090277 0.996251446613 0.006126677915 -0.001903597580 0.005111563910
0.023560019000 -0.000177763854 0.008594131145 0.995890364534 0.006475980954 0.996477644139 0.003761751214 -0.001092694169 0.004815034399
0.029425024000 0.000808292519 0.008179212044 0.995582948195 0.004512526753 0.996133536363 0.001013731208 -0.000397410470 0.005173413483
0.035290029000 0.001581581454 0.007239198114 0.995102373807 0.002476020618 0.996324617321 -0.001528720096 0.000238511978 0.004927356586
0.041155034000 0.001643897411 0.005826000506 0.994252956654 -0.000207704100 0.995611264883 -0.004383113672 0.000533388363 0.004440406235
0.047020039000 0.001153925881 0.004329673558 0.993893003692 -0.002043562551 0.995128564255 -0.005934855885 0.000255822220 0.003036559787
0.052885043000 0.000163704036 0.003367100377 0.993307983628 -0.004558759673 0.994759711984 -0.008059702010 -0.000500099009 0.001687517629
0.058750048000 -0.001224407556 0.002766863266 0.992684653847 -0.006168806571 0.994394376819 -0.009943499344 -0.001496258008 0.000433820480
0.064615053000 -0.002738107138 0.002682908470 0.992357912665 -0.007797706327 0.993925313355 -0.010677654833 -0.002763711517 -0.000253971508
0.070480058000 -0.004138036529 0.002728039348 0.992290817211 -0.009860429156 0.993892695225 -0.011584729954 -0.003893925084 -0.000501228779
0.076345063000 -0.005274550619 0.003372869743 0.991895603990 -0.010055944916 0.993599499171 -0.013939764368 -0.005233849226 -0.000463334809
0.082210068000 -0.006359389635 0.004075059414 0.991615763433 -0.013029938203 0.993509401617 -0.013274791546 -0.005943247270 0.000068891178
0.088075073000 -0.007024678433 0.005006120417 0.991482436382 -0.012998180635 0.993277005621 -0.015001315883 -0.006531989858 0.000776136634
0.093940078000 -0.007414201137 0.005866786682 0.991552240733 -0.012598357475 0.993343348348 -0.016192895680 -0.007288916454 0.001374819119
0.099805083000 -0.007349353917 0.006713228806 0.992029172101 -0.013326043476 0.993449939231 -0.017163384782 -0.006633721981 0.002695468395
0.105670087000 -0.006619846246 0.007340163193 0.992633858544 -0.014054276483 0.993832957546 -0.018089124966 -0.005978141182 0.003547971168
0.111535092000 -0.005427538222 0.007669304361 0.993656313519 -0.015988271190 0.994545117911 -0.019636263571 -0.004953199860 0.003908219147
0.117400097000 -0.004006486875 0.007501953487 0.994418949930 -0.018741302634 0.995125731372 -0.021336783633 -0.003870930802 0.003930447090
0.123265102000 -0.002597743129 0.006929154947 0.995273172797 -0.021700518788 0.995600888604 -0.024227749042 -0.002674693570 0.003496207442
0.129130107000 -0.001515244855 0.006081008522 0.995378654009 -0.024347050879 0.995951959541 -0.027463574832 -0.001880547588 0.002817003035
0.134995112000 -0.000754324821 0.004921152763 0.995179487779 -0.027470896890 0.995954596982 -0.030832199385 -0.001398884004 0.002116828888
0.140860117000 -0.000502001479 0.003859697481 0.994910344896 -0.030239785712 0.995963497838 -0.033962072172 -0.001173060809 0.001321868515
0.146725122000 -0.000839593419 0.002726966422 0.994563305812 -0.032956322675 0.995590746359 -0.037043987254 -0.001197562411 0.000201814609
0.152590127000 -0.001458214196 0.001573909300 0.994299605305 -0.035153867152 0.995289013680 -0.039104367214 -0.001405223962 -0.000893553430
0.158455131000 -0.002451641144 0.000799097134 0.993983168725 -0.037888298637 0.995069014423 -0.040984799019 -0.001816387908 -0.001903266682
0.164320136000 -0.003569384578 0.000468402573 0.993693311698 -0.040670578033 0.994796459034 -0.042659744901 -0.002403276903 -0.002671160549
0.170185141000 -0.004990808786 0.000452407369 0.993439160192 -0.042718372441 0.994552607576 -0.044177234709 -0.003295759442 -0.003100783081
0.176050146000 -0.006599790810 0.000942167825 0.992849762469 -0.043777353537 0.993866830857 -0.047377385241 -0.004790957373 -0.002678694105
0.181915151000 -0.007905493163 0.001656014241 0.992267523871 -0.045211485214 0.993519018965 -0.050247055938 -0.006068965653 -0.002014583741
0.187780156000 -0.008859215218 0.002383398731 0.991607867696 -0.047060064420 0.993160804088 -0.050623533346 -0.006760335788 -0.001532789433
0.193645161000 -0.009444245408 0.003291853663 0.991011045585 -0.048158947006 0.992680035054 -0.051125964158 -0.007179804417 -0.000729069349
0.199510166000 -0.009778718707 0.004232845770 0.990684887663 -0.048384357495 0.992331747889 -0.051483902367 -0.007315001249 0.000306255088
0.205375171000 -0.009618273720 0.005244934204 0.990527735978 -0.048403175051 0.991974718440 -0.052136929743 -0.007047302553 0.001429857793
0.211240175000 -0.009050162329 0.006107362500 0.990721128509 -0.048640819512 0.992062626685 -0.053092081101 -0.006427655141 0.002446599506
0.217105180000 -0.007699224592 0.006821215294 0.991142016170 -0.050369397249 0.992102365959 -0.054201980491 -0.005545511422 0.003248801780
0.222970185000 -0.006119014690 0.007262668030 0.991690594677 -0.052032236354 0.992486913068 -0.055783999280 -0.004307503935 0.003781364082
0.228835190000 -0.004564850140 0.007195225692 0.991988538296 -0.054193227781 0.992869287360 -0.058083315823 -0.002894146732 0.003965117118
0.234700195000 -0.003121027311 0.006544156964 0.992049939726 -0.056906945006 0.993027330006 -0.060914433968 -0.001993662237 0.003407230680
0.240565200000 -0.002371319834 0.005644646324 0.992010151057 -0.059874118937 0.993407574657 -0.063431773489 -0.001559000880 0.002624136398
0.246430205000 -0.002121148172 0.004769954765 0.991824362002 -0.062725063060 0.993406866215 -0.065170421114 -0.001243175572 0.001979213738
0.252295210000 -0.002549732426 0.003840472093 0.991659764931 -0.065113165093 0.993353612600 -0.067061799554 -0.001162856462 0.000981421065
0.258160215000 -0.003470247840 0.002769203207 0.991653224980 -0.066867803523 0.993098113042 -0.069323933656 -0.001421132397 -0.000307090502
0.264025219000 -0.004672091663 0.001917450848 0.991474902390 -0.069121449604 0.992880911543 -0.071310474617 -0.001974058709 -0.001241211175
0.269890224000 -0.006049473182 0.001202282660 0.991584501881 -0.071109267300 0.992907322156 -0.073317373596 -0.002714952479 -0.001696965163
0.275755229000 -0.007200486687 0.000847828467 0.991231318210 -0.073660355556 0.992492756438 -0.075819071516 -0.003408408038 -0.002287576361
0.281620234000 -0.008418779725 0.000582694731 0.991001953079 -0.075959763902 0.992133312007 -0.078171201265 -0.004324106434 -0.002621225939
0.287485239000 -0.009565062549 0.000553114398 0.990518550988 -0.078045687162 0.991887541198 -0.079688317199 -0.005193891700 -0.002736595464
0.293350244000 -0.010387063217 0.000785844624 0.989926211946 -0.079737913373 0.991597927846 -0.081073049072 -0.005783597237 -0.002540412378
0.299215249000 -0.010849163207 0.001116768304 0.989568302967 -0.081273234677 0.991147072913 -0.082217762927 -0.006199529961 -0.002257681068
0.305080254000 -0.010886712090 0.001426237069 0.989125720297 -0.081260431017 0.990649990530 -0.082569810205 -0.007175160235 -0.001257248424
0.310945259000 -0.010571690295 0.002013532841 0.988916852620 -0.081407577210 0.990280660183 -0.083277335046 -0.007887183381 -0.000272137248
0.316810263000 -0.010046016906 0.002684171515 0.988785418309 -0.081759233474 0.990023232483 -0.084059928456 -0.006861825873 0.000095708701
0.322675268000 -0.008992715817 0.003220792739 0.989121449212 -0.082716615636 0.989874790319 -0.085419845264 -0.006336063134 0.000448518575
0.328540273000 -0.007699010240 0.003558293456 0.989561888687 -0.084013480562 0.990197154290 -0.086956697112 -0.006038675841 0.000841874991
0.334405278000 -0.006171306863 0.003521158253 0.989571088343 -0.086320445524 0.990389623719 -0.089704332223 -0.004886267991 0.000897698520
0.340270283000 -0.004907754942 0.003010563561 0.989736565796 -0.089337190344 0.991204936522 -0.092572847189 -0.003355909264 0.000491596901
0.346135288000 -0.004321146083 0.002244471383 0.989909406780 -0.091834567825 0.991434662945 -0.094605595373 -0.003285799727 -0.000300403776
0.352000293000 -0.004372675212 0.001227294057 0.990254919856 -0.094414662018 0.991849754047 -0.096678843862 -0.003233852319 -0.001508503545
0.357865298000 -0.004700626854 0.000292946661 0.990284487490 -0.096916090499 0.991700121269 -0.099050567438 -0.003151450525 -0.002637617369
0.363730303000 -0.005425401453 -0.000926677224 0.990419492478 -0.099328392085 0.991912096731 -0.101049747472 -0.003307977146 -0.003531929131
0.369595307000 -0.006317153812 -0.002057007047 0.990940207090 -0.102170795776 0.991847810087 -0.103376052898 -0.003348063318 -0.003976293083
0.375460312000 -0.007411109939 -0.003299924847 0.990873409987 -0.104933025384 0.991722621415 -0.105872099721 -0.003847086905 -0.004803544449
0.381325317000 -0.008389950135 -0.004247841612 0.990886831279 -0.107741743602 0.991645467787 -0.108827682448 -0.004475151983 -0.005550700306
0.387190322000 -0.009024000863 -0.004535082372 0.990650431622 -0.110359768435 0.991564020755 -0.111600767159 -0.005566542742 -0.006263435085
0.393055327000 -0.010158162915 -0.004849973586 0.990603484405 -0.112372671130 0.991488580829 -0.113849593493 -0.006510220003 -0.006780223819
0.398920332000 -0.010888710696 -0.004821707390 0.990189209586 -0.114271157138 0.991217248194 -0.115745827957 -0.007396320802 -0.006768583825
0.404785337000 -0.011158198232 -0.004715152696 0.989433026036 -0.116231585042 0.990635661711 -0.117192095234 -0.007938095253 -0.006503188219
0.410650342000 -0.011017518820 -0.004509170248 0.988708726642 -0.117858284476 0.989976942163 -0.118337288106 -0.008196937907 -0.005892858550
0.416515347000 -0.010662492411 -0.003967989915 0.987570900804 -0.119195608462 0.988862571327 -0.119775527015 -0.008432540871 -0.005457709549
0.422380351000 -0.010092009402 -0.003457931094 0.986867771413 -0.120609979994 0.988157564197 -0.121250962756 -0.008437942151 -0.005008167173
0.428245356000 -0.009242641339 -0.002932109608 0.986140724354 -0.122245311079 0.987690135847 -0.122385865469 -0.007661734889 -0.004503328135
0.434110361000 -0.008301831609 -0.002399801590 0.985555635704 -0.123316236705 0.987226871055 -0.124370804777 -0.006715213757 -0.004147279278
0.439975366000 -0.007205724631 -0.001826740524 0.985069090190 -0.124861061618 0.987101018237 -0.126663949925 -0.005803041958 -0.004114029137
0.445840371000 -0.006173404176 -0.001665088017 0.984355894584 -0.126658230466 0.986972498006 -0.128711929770 -0.004610971106 -0.004182022525
0.451705376000 -0.005177364894 -0.001999516569 0.984332480484 -0.128964893883 0.986951435997 -0.130958989932 -0.003802135877 -0.004357653155
0.457570381000 -0.005019436134 -0.002507649847 0.984086353993 -0.131981308368 0.986807109073 -0.132857308895 -0.004177215397 -0.004647888615
0.463435386000 -0.005122165548 -0.003159084518 0.983959788062 -0.134250092401 0.986495348224 -0.134561212172 -0.003981824059 -0.005196545090
0.469300391000 -0.005386858514 -0.004029553548 0.983990180583 -0.136329024742 0.986136492666 -0.136574944450 -0.003482604008 -0.005710359886
0.475165395000 -0.005933072563 -0.004981703679 0.983843006650 -0.138216795760 0.985895974443 -0.138697494667 -0.003791028712 -0.006548609277
0.481030400000 -0.006432128110 -0.005568018684 0.983767307539 -0.140733550782 0.985734405472 -0.141077410232 -0.004027644513 -0.007046534844
0.486895405000 -0.007047270051 -0.005952930165 0.983313286523 -0.143172843945 0.985322626558 -0.143401213553 -0.004365032727 -0.007419958011
0.492760410000 -0.007827589932 -0.006288868694 0.983234492227 -0.144993041939 0.985317030683 -0.145165624784 -0.005007148441 -0.007596280887
0.498625415000 -0.008287711815 -0.006492350732 0.982966310891 -0.146699797543 0.984953805077 -0.147026098778 -0.005209639903 -0.007743054450
0.504490420000 -0.009235412660 -0.006555750812 0.982741126352 -0.147898100030 0.984726473363 -0.148547764284 -0.005897588643 -0.007654171513
0.510355425000 -0.009601299644 -0.006356867017 0.982104239212 -0.149481981426 0.984420006941 -0.149939847279 -0.006502007103 -0.007485135432
0.516220430000 -0.009613546725 -0.005426074870 0.981414206406 -0.150146810179 0.983247267794 -0.150891599851 -0.006669827404 -0.006964815155
0.522085434000 -0.009131128662 -0.004491577991 0.980693885575 -0.151569819871 0.982452452650 -0.152240428254 -0.006446269288 -0.005712746515
0.527950439000 -0.008643226262 -0.003833419824 0.979554805271 -0.153483544803 0.981839580341 -0.153772849993 -0.006506420166 -0.005118880704
0.533815444000 -0.008323457303 -0.002991013357 0.978920661050 -0.154668930061 0.981132151415 -0.155387135231 -0.005997860747 -0.004391153782
0.539680449000 -0.007715957106 -0.002155756682 0.978698602231 -0.155802710496 0.980868979110 -0.157287823402 -0.005155700154 -0.003610441870
0.545545454000 -0.007075567698 -0.001435646081 0.978303925709 -0.156992062465 0.980539714318 -0.158730453586 -0.004773130572 -0.003085658896
0.551410459000 -0.006341090301 -0.001270633716 0.978524758503 -0.158489417551 0.980609865561 -0.160238042506 -0.003953736609 -0.002601390276
0.557275464000 -0.005768025003 -0.001167797590 0.978938994408 -0.160555025622 0.980817398882 -0.161856051718 -0.003205072929 -0.002580359438
0.563140469000 -0.005466117770 -0.001447353281 0.978938139961 -0.162962795678 0.980974847210 -0.163531546532 -0.002504998482 -0.002755205934
0.569005474000 -0.005467122485 -0.002152229388 0.979316535366 -0.165471480920 0.981071943372 -0.165160910040 -0.002063383221 -0.003322978660
0.574870478000 -0.005417099119 -0.002822491760 0.979577860376 -0.168117573041 0.980709126848 -0.167263291348 -0.001661966799 -0.003576272908
0.580735483000 -0.005575817683 -0.003723624604 0.980063731323 -0.170262220888 0.981010280704 -0.169410657071 -0.001575729967 -0.004295784443
0.586600488000 -0.005745502211 -0.004283454198 0.980244499886 -0.173114629848 0.981152670722 -0.171808552178 -0.001835907879 -0.004877742176
0.592465493000 -0.006227182412 -0.004788491499 0.980162493663 -0.175623811411 0.981258362411 -0.173829637840 -0.001827234403 -0.005349559824
0.598330498000 -0.006684334957 -0.005087147605 0.980378777356 -0.177526871995 0.981341481442 -0.175848105862 -0.002302359900 -0.005634600134
0.604195503000 -0.007226627507 -0.005469630414 0.980455671906 -0.178977448345 0.981307490141 -0.177552730255 -0.002779748027 -0.006057120682
0.610060508000 -0.007860507435 -0.005853163854 0.980421727760 -0.181011444441 0.981425726270 -0.179336888366 -0.003401618240 -0.006025679204
0.615925513000 -0.008542940717 -0.006052191148 0.979912978061 -0.183478765665 0.980937857481 -0.181220397793 -0.004070863450 -0.006005153240
0.621790518000 -0.009009320460 -0.006097255760 0.979080537000 -0.185541718748 0.980295138812 -0.183380530261 -0.004754752170 -0.005890779907
0.627655522000 -0.008967521991 -0.004782693093 0.978400769620 -0.187600200387 0.979621936147 -0.185253247091 -0.005478820135 -0.005584765205
0.633520527000 -0.008851574504 -0.004102292239 0.977580037735 -0.189072797987 0.979093568994 -0.187416855703 -0.005608846399 -0.004863576174
0.639385532000 -0.008739837617 -0.003445529248 0.976765939106 -0.190398904753 0.978918675387 -0.189474301133 -0.005694474520 -0.004251845130
0.645250537000 -0.008542662606 -0.002788716196 0.976095211231 -0.191971270655 0.978464612358 -0.191251679707 -0.005642472715 -0.003829177251
0.651115542000 -0.008444753031 -0.002565748865 0.975630658051 -0.193677136207 0.978244792770 -0.193116088131 -0.005578463736 -0.003204357346
0.656980547000 -0.008028850143 -0.002446344702 0.975030497589 -0.195817291416 0.978045893113 -0.195136991583 -0.005147818134 -0.003052251260
0.662845552000 -0.007722223986 -0.002624626362 0.974739961740 -0.198070510314 0.977609977970 -0.196722361085 -0.004655779977 -0.002884770872
0.668710557000 -0.007247791686 -0.002838114364 0.974899861320 -0.200405164826 0.977651299244 -0.198742795653 -0.004101020200 -0.003473254544
0.674575562000 -0.006661606193 -0.003480992530 0.974368250675 -0.202697793858 0.976965059378 -0.201213249519 -0.003539379728 -0.003699605876
0.680440566000 -0.005975194741 -0.004075913739 0.974277728528 -0.205270102569 0.976730294234 -0.203423940324 -0.002994071103 -0.004167600071
0.686305571000 -0.005574620522 -0.004969805760 0.973824987781 -0.207776438557 0.976284112362 -0.206072196317 -0.002559881199 -0.004605855431
0.692170576000 -0.005226343404 -0.005329566481 0.973634432294 -0.210775471947 0.976319482642 -0.208950632816 -0.002420050780 -0.005092091260
0.698035581000 -0.005133239343 -0.005719294021 0.973108408396 -0.213076528120 0.975829708362 -0.211302744223 -0.002245366158 -0.005352175275
0.703900586000 -0.005138238763 -0.006057346973 0.972529567155 -0.215583673019 0.975433243099 -0.213469231297 -0.002446316618 -0.005737331749
0.709765591000 -0.005383376168 -0.006460565648 0.971984314597 -0.217386001113 0.975029587387 -0.215252517113 -0.002645258643 -0.006186697977
0.715630596000 -0.005673370980 -0.006706231000 0.971664656708 -0.218733503739 0.974565156625 -0.216795314703 -0.002980059071 -0.006195214676
0.721495601000 -0.006157056812 -0.007150401777 0.971289478070 -0.220005534117 0.974012560044 -0.218436576814 -0.003243056810 -0.006323344044
0.727360606000 -0.006418084626 -0.007382094920 0.970573336885 -0.221448172689 0.973351450719 -0.220018026706 -0.003995306259 -0.006357696729
0.733225610000 -0.006348012772 -0.006728309983 0.969710780743 -0.222559203555 0.972657998643 -0.221899973137 -0.004784872621 -0.006253750544
0.739090615000 -0.006564738178 -0.005899942052 0.968914519416 -0.223830012150 0.972182905371 -0.223934078445 -0.005216583953 -0.006175492828
0.744955620000 -0.006841717438 -0.005372442458 0.968036021903 -0.225585957340 0.971216618260 -0.225572438481 -0.005566093730 -0.006107120686
0.750820625000 -0.006776125714 -0.005012938064 0.967307166861 -0.227441813567 0.970687933462 -0.227393761613 -0.005654277993 -0.005458755179
0.756685630000 -0.006676405575 -0.004778130713 0.966542279401 -0.228810666849 0.970049103991 -0.228779045080 -0.005526057975 -0.004681374778
0.762550635000 -0.006567378647 -0.004718770835 0.966045172879 -0.231026704481 0.969241932220 -0.230001588136 -0.005266023888 -0.004469778808
0.768415640000 -0.006305856667 -0.004886856597 0.965778190755 -0.232474110781 0.968814818034 -0.231922372499 -0.005165061690 -0.004471694580
0.774280645000 -0.005678221228 -0.005276087589 0.965364677097 -0.235022902778 0.968177667840 -0.233816544679 -0.004420287113 -0.004378502930
0.780145650000 -0.004809794763 -0.005150936455 0.965315023976 -0.237611290723 0.967706859085 -0.235697995873 -0.003336078015 -0.004662918242
0.786010654000 -0.003740610719 -0.005352708796 0.964943021975 -0.239759729768 0.967037136247 -0.237850110237 -0.002789129598 -0.004733678052
0.791875659000 -0.003201538881 -0.005791111469 0.965064139706 -0.241963274853 0.966726133998 -0.240010518372 -0.002406013641 -0.004410165519
0.797740664000 -0.002776154379 -0.005827079683 0.964579447670 -0.244240281699 0.966540110993 -0.242007118105 -0.001585557553 -0.004390417361
0.803605669000 -0.002308507314 -0.005699334997 0.964120521598 -0.246407374097 0.966189427443 -0.243786655239 -0.001203131782 -0.004809874612
0.809470674000 -0.002276741885 -0.005500087468 0.964049024477 -0.248493365514 0.966168137980 -0.245349376542 -0.001101955574 -0.004916769084
0.815335679000 -0.002496399710 -0.005468022052 0.963795834157 -0.250354294276 0.965483004897 -0.247381181839 -0.001129495909 -0.004378851957
0.821200684000 -0.002651879015 -0.005577905603 0.963756799334 -0.251971975944 0.964671329798 -0.248841866340 -0.001465763667 -0.004536915367
