# GHZ S RI R 50.000000000000
0.000100000000 0.962749899107 0.025051064775 0.001088574739 0.002676254920 0.002426837955 0.002459029552 0.981481918316 -0.005419874293
0.005965004000 0.987903406614 -0.017252930374 -0.000036947939 -0.000042023811 -0.000030544424 0.000037496982 0.987646542274 -0.004916715514
0.011830009000 0.984935515588 -0.011440228746 0.000000292730 0.000006314866 0.000000378696 -0.000033944552 0.985958019215 -0.000314842051
0.017695014000 0.985787808755 -0.010779064597 0.000000175105 0.000010111619 -0.000016373804 0.000024132936 0.987061624552 -0.001380717355
0.023560019000 0.987750620562 -0.012872673259 -0.000013475949 0.000002443151 -0.000023806724 0.000013335681 0.989095423549 -0.004472112312
0.029425024000 0.989586203519 -0.016243291321 0.000004893114 0.000001932031 -0.000009704875 0.000008710435 0.991901177595 -0.008302575801
0.035290029000 0.991761203290 -0.019389149105 -0.000001102133 0.000002716336 -0.000010781555 -0.000008154755 0.992651588698 -0.013209537720
0.041155034000 0.993512504199 -0.023914397629 0.000002917082 0.000001547147 -0.000006059091 -0.000005578669 0.994027067905 -0.017962336090
0.047020039000 0.994676062483 -0.027615929679 -0.000004949153 0.000004898609 0.000001890184 -0.000008736351 0.994892246870 -0.022369393954
0.052885043000 0.994796103953 -0.032687912583 -0.000003665171 0.000003783737 -0.000005823926 -0.000011975219 0.994446764715 -0.028166750668
0.058750048000 0.994814232603 -0.036843950209 0.000004273802 0.000005635724 0.000009080025 0.000004517890 0.994005111347 -0.032881390705
0.064615053000 0.993803064282 -0.041091935644 -0.000001054949 -0.000007383125 -0.000001481150 -0.000009843729 0.992778640744 -0.037418568740
0.070480058000 0.992290120733 -0.045181300694 -0.000006366515 0.000004309720 0.000021573490 -0.000001763647 0.991240372067 -0.041982702029
0.076345063000 0.990768284321 -0.049234421193 -0.000001561362 -0.000001689846 0.000003222884 0.000003967114 0.989503792717 -0.045880849541
0.082210068000 0.988905303806 -0.052839962789 0.000007167444 -0.000003407206 0.000009640235 -0.000003346775 0.988081516034 -0.050182287506
0.088075073000 0.987266305311 -0.056636840771 -0.000001365566 -0.000002554083 0.000005415376 0.000012788999 0.986566151762 -0.053924844241
0.093940078000 0.986012401387 -0.059757335690 -0.000008707004 -0.000000345261 0.000000126384 0.000009328089 0.985217428844 -0.057052763585
0.099805083000 0.985171269752 -0.062601205971 0.000002848963 -0.000022662924 -0.000001240938 0.000017721792 0.984860700923 -0.060680606007
0.105670087000 0.984906905626 -0.065419940396 0.000003234382 0.000005964335 0.000002358580 0.000014543769 0.984737332958 -0.063602966416
0.111535092000 0.985344115033 -0.067967707244 0.000017546783 -0.000004738281 0.000005876626 0.000027274112 0.985091219396 -0.066868481932
0.117400097000 0.986442665359 -0.070368591367 -0.000004244650 0.000000862935 0.000001594766 0.000006792311 0.985998403397 -0.069844546394
0.123265102000 0.988088949428 -0.072993020735 -0.000018962642 -0.000000131758 -0.000007696244 0.000010607570 0.987240139845 -0.073530476276
0.129130107000 0.990141051900 -0.075621240122 -0.000001856662 0.000009100601 -0.000003563448 0.000003307636 0.988663924392 -0.077284839734
0.134995112000 0.992052973759 -0.078378911386 0.000001065931 0.000000417627 -0.000008439789 0.000004080725 0.990239656603 -0.081293076074
0.140860117000 0.994010419003 -0.081664752214 -0.000010415744 0.000007037491 0.000003532538 0.000003895503 0.991589625050 -0.085470395886
0.146725122000 0.994918737393 -0.085121954780 0.000023414755 -0.000017963508 0.000007438036 0.000012315216 0.992055282202 -0.090005348246
0.152590127000 0.995329246623 -0.088188181034 0.000020838359 0.000001319965 0.000021121039 -0.000019113095 0.992212271326 -0.093724216738
0.158455131000 0.994346682670 -0.091803066607 0.000011761303 -0.000026896763 0.000019436689 -0.000022961051 0.991284857477 -0.097937431356
0.164320136000 0.993200413374 -0.096419185608 0.000007435764 -0.000024628782 -0.000003758089 -0.000026232328 0.990034705528 -0.103331141770
0.170185141000 0.991437733638 -0.100447603723 -0.000002780163 -0.000018521334 0.000001623551 -0.000015280990 0.988344895294 -0.107713322052
0.176050146000 0.988753345491 -0.104842610029 0.000004173663 -0.000002437406 0.000016923541 -0.000023917027 0.986050466345 -0.112460719925
0.181915151000 0.986454075641 -0.109814198936 -0.000012464501 -0.000005438631 0.000007937152 -0.000019393830 0.983909887985 -0.116885141219
0.187780156000 0.984297833601 -0.114123049634 -0.000001619094 0.000010491311 0.000012825618 -0.000011652619 0.982012259215 -0.120921576569
0.193645161000 0.982726539795 -0.118130821534 0.000004512516 -0.000023849434 0.000016503117 -0.000022610063 0.980448772261 -0.124439163682
0.199510166000 0.981457795945 -0.121794251380 0.000011499594 -0.000002922488 0.000013843838 -0.000005069137 0.979496903311 -0.127875725255
0.205375171000 0.980694198917 -0.125340827378 -0.000006735443 -0.000008318472 0.000003159466 -0.000027721820 0.978676124108 -0.131006990485
0.211240175000 0.980698273563 -0.128534920877 0.000002729991 -0.000011681074 0.000011237745 0.000012234396 0.978529794248 -0.133716543846
0.217105180000 0.981815213711 -0.130665412057 0.000008149380 -0.000005415735 -0.000016716578 -0.000012763244 0.979249495448 -0.136177554537
0.222970185000 0.983166272437 -0.132762221216 -0.000015501371 -0.000000672346 -0.000009263720 0.000003798412 0.980189321433 -0.139102040248
0.228835190000 0.985133216849 -0.134847515604 -0.000011692496 -0.000000051656 -0.000019773519 -0.000008320987 0.981534707708 -0.141431702977
0.234700195000 0.987229354191 -0.137146253163 -0.000009345276 0.000005127117 -0.000014334071 -0.000008524681 0.982888948603 -0.145053632833
0.240565200000 0.989686313379 -0.138869568115 -0.000010894262 -0.000003148366 -0.000012433799 -0.000000209280 0.984290490798 -0.148900670739
0.246430205000 0.991136500337 -0.140543379689 -0.000033804638 -0.000012639472 -0.000015254338 -0.000014810475 0.985252610824 -0.152210082141
0.252295210000 0.991770867375 -0.143055009649 -0.000007611987 -0.000007889533 -0.000018373564 -0.000017725491 0.985702477771 -0.156096555204
0.258160215000 0.991137587708 -0.146386056654 -0.000011911046 -0.000019290285 -0.000010543953 -0.000023508255 0.985231852546 -0.160684589825
0.264025219000 0.989572180937 -0.150389050820 -0.000005582022 -0.000017613528 -0.000008457134 -0.000009070008 0.984224419602 -0.165057726791
0.269890224000 0.987179549040 -0.154880752041 -0.000001984779 -0.000000908996 0.000002132246 -0.000014315819 0.982656394909 -0.169363707165
0.275755229000 0.984389661314 -0.159842589187 -0.000020429476 -0.000029873634 -0.000002939454 -0.000017015737 0.980174157274 -0.175223406211
0.281620234000 0.981554004142 -0.165079509981 0.000005369422 -0.000015827381 -0.000001443022 -0.000032752236 0.977961913711 -0.180538021811
0.287485239000 0.978965136900 -0.170443739391 -0.000013968012 -0.000027880881 -0.000006057355 -0.000027814970 0.975565210831 -0.185538424511
0.293350244000 0.976795923815 -0.176108129867 -0.000031284225 -0.000041303676 -0.000025752044 -0.000013184805 0.973234812138 -0.190922161909
0.299215249000 0.974973269912 -0.181223928032 -0.000031799010 -0.000006071584 -0.000043902676 -0.000011477877 0.971276490985 -0.196600143840
0.305080254000 0.973792874322 -0.185917307580 -0.000076813751 -0.000003274610 -0.000051384933 0.000017335811 0.969685027884 -0.199511973585
0.310945259000 0.973495581589 -0.189885421216 -0.000045247142 0.000037654518 -0.000045501001 0.000019838693 0.968527969315 -0.202251233566
0.316810263000 0.974038934017 -0.191961375898 -0.000060452066 0.000035575898 -0.000049180509 0.000042634487 0.968515619582 -0.203725855527
0.322675268000 0.975328412139 -0.194264373743 -0.000039906584 0.000042170621 -0.000053847813 0.000046918810 0.968955131078 -0.206308160368
0.328540273000 0.977196075261 -0.196488224834 -0.000023049872 0.000021469477 -0.000010635936 0.000053403870 0.969349590686 -0.208783202877
0.334405278000 0.979047457438 -0.198378378461 -0.000016118970 0.000047891169 -0.000015574199 0.000033880205 0.970232153631 -0.212186777387
0.340270283000 0.981380571698 -0.199753876247 -0.000003668183 0.000028959322 -0.000019283054 0.000046491130 0.971544154388 -0.215878533384
0.346135288000 0.982645181533 -0.200934172410 0.000002303252 0.000018696485 0.000001613345 0.000027224563 0.972178701783 -0.218319695236
0.352000293000 0.983343535383 -0.202737514313 0.000001543295 0.000014196296 -0.000004809509 0.000022643317 0.972515434820 -0.221603079047
0.357865298000 0.982509047494 -0.205348651399 0.000000655876 0.000039632606 -0.000007163556 0.000022505164 0.972121203747 -0.226554274501
0.363730303000 0.980772651356 -0.207509744813 0.000015842237 0.000025595369 0.000002095255 0.000014454755 0.971280420628 -0.230658754003
0.369595307000 0.978481362393 -0.210709415297 0.000009205025 0.000011474815 0.000023862739 0.000015194250 0.970189116720 -0.234466896757
0.375460312000 0.974612948990 -0.216009844765 0.000018413685 0.000025623113 0.000009361607 0.000026465095 0.967704438129 -0.239569560554
0.381325317000 0.970369144643 -0.222679798775 0.000014423356 0.000024864987 0.000009213063 0.000005419467 0.964643486604 -0.245615019429
0.387190322000 0.967150175518 -0.229389238197 0.000013937846 0.000017049441 0.000007879628 0.000012804034 0.961751096549 -0.251730153246
0.393055327000 0.964289554105 -0.235673867114 0.000008794149 0.000027845712 0.000028033118 0.000015608536 0.958831541283 -0.257203945314
0.398920332000 0.961682747411 -0.242065210030 0.000015222589 0.000012598082 0.000025649861 -0.000005572154 0.956181485660 -0.262299605100
0.404785337000 0.959987091851 -0.247319416509 0.000007589668 0.000026370967 0.000017795355 0.000024711021 0.954025975018 -0.266864697680
0.410650342000 0.959281786906 -0.251794801362 0.000028140467 0.000015230914 0.000030181254 0.000033308193 0.952529424336 -0.270537759973
0.416515347000 0.959340779558 -0.255833061997 0.000016247886 0.000036294646 0.000017403361 0.000024950858 0.950874584170 -0.274183475647
0.422380351000 0.960168013375 -0.258800777431 0.000017247176 0.000029206820 0.000036790252 0.000041338745 0.950265407672 -0.277334840944
0.428245356000 0.961770669493 -0.260546384685 0.000020326516 0.000027770849 0.000035487191 0.000041002775 0.950767433356 -0.280201039976
0.434110361000 0.964080110146 -0.261975794251 0.000049125761 0.000036140326 0.000028508844 0.000049148188 0.951482150485 -0.282436019966
0.439975366000 0.966294020851 -0.262931358606 0.000085053575 0.000056955202 0.000052953639 0.000053784610 0.952246895437 -0.284328624845
0.445840371000 0.967841344710 -0.263675803562 0.000105535958 0.000019477963 0.000075634396 0.000017992314 0.953325457156 -0.286935657574
0.451705376000 0.969090514108 -0.264181757702 0.000105707006 -0.000011638997 0.000089061542 0.000014717039 0.953863891549 -0.289613184832
0.457570381000 0.969097041769 -0.264737802673 0.000073178257 -0.000006693831 0.000078016417 -0.000025865733 0.953473178713 -0.293088309649
0.463435386000 0.967861491614 -0.266227867931 0.000075526102 -0.000028601599 0.000085259021 -0.000023687976 0.952554775780 -0.297150931166
0.469300391000 0.965408345733 -0.268653882806 0.000085192250 -0.000044632257 0.000078867357 -0.000046778552 0.951408926815 -0.301357667837
0.475165395000 0.961607925613 -0.272547295836 0.000087334606 -0.000065811089 0.000074641068 -0.000074664513 0.949496497939 -0.305581663350
0.481030400000 0.957734307262 -0.277144839540 0.000049812868 -0.000099618477 0.000054924576 -0.000092241020 0.947213656707 -0.310818386368
0.486895405000 0.953646146306 -0.283376257695 0.000022548294 -0.000082151421 0.000032086683 -0.000089248973 0.944182603478 -0.316296752966
0.492760410000 0.949728676860 -0.289779295547 0.000015008612 -0.000085579362 0.000020407910 -0.000078182228 0.940776028830 -0.321617714634
0.498625415000 0.946541822524 -0.296155484408 0.000016010176 -0.000082998410 0.000042243517 -0.000075964003 0.937739016238 -0.326920205828
0.504490420000 0.944308620653 -0.302746319159 -0.000004303722 -0.000064147037 0.000005375209 -0.000065339321 0.934883946339 -0.331453418495
0.510355425000 0.942844282005 -0.308108163182 -0.000028544361 -0.000056713059 -0.000015872747 -0.000060931479 0.932579472227 -0.335635080538
0.516220430000 0.942298043028 -0.312704477965 -0.000023298714 -0.000075085503 -0.000010319084 -0.000059067229 0.930576700321 -0.338949709132
0.522085434000 0.943099122854 -0.315943406402 -0.000024000868 -0.000049001637 -0.000006159003 -0.000038435154 0.929389578645 -0.342423152766
0.527950439000 0.944574890113 -0.319088754124 -0.000018981964 -0.000045321791 -0.000026574974 -0.000028476406 0.928146776042 -0.346065497594
0.533815444000 0.946710948535 -0.320896309813 -0.000005667946 -0.000034843088 -0.000051775318 -0.000033857878 0.928244068908 -0.349078772689
0.539680449000 0.949068728000 -0.321799217387 -0.000014172470 -0.000056574090 -0.000022758364 -0.000029660811 0.928991843266 -0.351235037863
0.545545454000 0.951201930048 -0.322084779688 -0.000041164458 -0.000049428568 -0.000037021213 -0.000039084484 0.929587025695 -0.353618519034
0.551410459000 0.952990423136 -0.322464470412 -0.000015961161 -0.000063088167 -0.000038991868 -0.000051071810 0.930116177923 -0.356070010386
0.557275464000 0.953377117429 -0.322504804024 -0.000020953142 -0.000050585865 -0.000026938273 -0.000047225078 0.929954478911 -0.359317324733
0.563140469000 0.952924615105 -0.322993137473 -0.000045141842 -0.000057130937 -0.000047608314 -0.000049034587 0.929887165695 -0.362615736485
0.569005474000 0.950858145607 -0.324240159803 -0.000043859427 -0.000045126676 -0.000048377061 -0.000052413035 0.929045056390 -0.366287595134
0.574870478000 0.947282694394 -0.326287943177 -0.000048071056 -0.000049660489 -0.000041194649 -0.000062188673 0.927642297126 -0.370118387713
0.580735483000 0.943229017506 -0.329532465631 -0.000043220470 -0.000059678870 -0.000057950911 -0.000064309916 0.925442452486 -0.374326899399
0.586600488000 0.938064500223 -0.334449163237 -0.000081940434 -0.000059806959 -0.000079599326 -0.000064607595 0.922167275266 -0.379060829393
0.592465493000 0.933222318577 -0.340435967361 -0.000093971741 -0.000045847884 -0.000090726869 -0.000059987015 0.918334076481 -0.384343831631
0.598330498000 0.928436151466 -0.346753483716 -0.000121940136 -0.000029549693 -0.000110520922 -0.000017819414 0.914744934285 -0.389232723647
0.604195503000 0.924482818018 -0.353568840086 -0.000130252739 0.000017558731 -0.000122377165 0.000010077589 0.910898380450 -0.393197974774
0.610060508000 0.921360907136 -0.360520903543 -0.000089821398 0.000048295102 -0.000082667740 0.000032481582 0.907217581149 -0.397874882020
0.615925513000 0.919032013516 -0.366761749476 -0.000106881851 0.000045608336 -0.000094428872 0.000039614832 0.903853070865 -0.402095078728
0.621790518000 0.918101271940 -0.372476181958 -0.000100029774 0.000049738457 -0.000106924519 0.000052928792 0.901228000709 -0.406577304123
0.627655522000 0.919401165359 -0.376530584145 -0.000099476449 0.000063946183 -0.000092719183 0.000057944739 0.899134045841 -0.410656943095
0.633520527000 0.920762283644 -0.379908956734 -0.000107228916 0.000073632779 -0.000104284487 0.000085097361 0.898016540875 -0.413711076976
0.639385532000 0.923019565849 -0.382700178091 -0.000104012222 0.000111895881 -0.000103786627 0.000108256293 0.898079875964 -0.416157349789
0.645250537000 0.925095027766 -0.384349927675 -0.000063426320 0.000138910505 -0.000035276974 0.000141991947 0.897880513848 -0.419957484751
0.651115542000 0.927119076910 -0.385133524561 -0.000029772713 0.000138573942 -0.000016915620 0.000136702180 0.898025759137 -0.423725587676
0.656980547000 0.928310753775 -0.385986179671 -0.000021857367 0.000140746242 -0.000007452277 0.000103726081 0.898042368035 -0.426478507852
0.662845552000 0.928707631354 -0.386420847952 0.000033516575 0.000109262898 0.000010734034 0.000101065625 0.898376582037 -0.429339072756
0.668710557000 0.927510913895 -0.386990243394 0.000002364092 0.000106546269 0.000034380223 0.000074440866 0.898391125706 -0.432487984134
0.674575562000 0.924760074150 -0.388338114906 0.000041935507 0.000077520952 0.000019736717 0.000078559204 0.897512361396 -0.436135910765
0.680440566000 0.920364344984 -0.390845872081 0.000037540775 0.000086145737 0.000036253206 0.000061137352 0.895632132210 -0.440253080772
0.686305571000 0.915101232878 -0.394123348338 0.000033723808 0.000092429978 0.000027712270 0.000072587871 0.893083884264 -0.444101984279
0.692170576000 0.908817494925 -0.399734204257 0.000047493428 0.000070044323 0.000038926947 0.000065621833 0.888311315936 -0.449483530923
0.698035581000 0.902724837703 -0.405750390733 0.000033057808 0.000082349744 0.000045205561 0.000053943514 0.884340568120 -0.454070467773
0.703900586000 0.897554014902 -0.412015466746 0.000025790382 0.000069121585 0.000040145759 0.000051030387 0.880036012224 -0.458002582120
0.709765591000 0.893059274796 -0.417944382052 0.000054952468 0.000071141327 0.000055078727 0.000063313508 0.875593628388 -0.462437198817
0.715630596000 0.889699380079 -0.424363731727 0.000049424119 0.000075034876 0.000057343578 0.000072329004 0.871307029097 -0.466694337884
0.721495601000 0.887595192901 -0.430935833912 0.000058113234 0.000059135704 0.000067289354 0.000079627855 0.867542343098 -0.471088559936
0.727360606000 0.886995852648 -0.436567056155 0.000065230965 0.000073690488 0.000068344101 0.000077912255 0.864625706542 -0.475402807768
0.733225610000 0.888016720162 -0.441811835195 0.000084865862 0.000071646781 0.000090143304 0.000064953543 0.862412427845 -0.479230171342
0.739090615000 0.890454683569 -0.445489740433 0.000112681236 0.000072017419 0.000097868149 0.000059967442 0.861563482026 -0.482911922801
0.744955620000 0.892681268141 -0.447986946195 0.000146954516 0.000054850773 0.000132436719 0.000066923927 0.861008915384 -0.486631274018
0.750820625000 0.895274466197 -0.449265575752 0.000162663072 0.000026876194 0.000157675098 0.000040831878 0.860779762150 -0.490287523353
0.756685630000 0.897971796572 -0.449851356667 0.000178675883 -0.000010534270 0.000145239147 -0.000018961375 0.860997926247 -0.493758203354
0.762550635000 0.899387616434 -0.449745406473 0.000139941000 -0.000069879199 0.000143098245 -0.000058666468 0.860986136683 -0.497081479402
0.768415640000 0.899510950079 -0.450303436799 0.000138909491 -0.000052634833 0.000123679714 -0.000071162537 0.861083371032 -0.501362964377
0.774280645000 0.897992980636 -0.450429634352 0.000105558655 -0.000067000956 0.000115479004 -0.000075680051 0.860243230284 -0.505090716810
0.780145650000 0.894829586005 -0.451359057233 0.000118078805 -0.000074024745 0.000088455623 -0.000097239715 0.859052386497 -0.508685331317
0.786010654000 0.890113963401 -0.452552793702 0.000118554327 -0.000082334455 0.000088413309 -0.000093543381 0.857020745971 -0.511297825841
0.791875659000 0.884413660181 -0.454851064059 0.000086563713 -0.000089901731 0.000098313644 -0.000114403667 0.854399098156 -0.513622816490
0.797740664000 0.878493060152 -0.458116609883 0.000091198579 -0.000107802684 0.000097937966 -0.000132290112 0.851087692819 -0.516068569109
0.803605669000 0.871689732137 -0.462644990309 0.000095438024 -0.000163398839 0.000091691218 -0.000151142072 0.846897822787 -0.519259885690
0.809470674000 0.866019793412 -0.467940827928 0.000041935119 -0.000174587953 0.000042791899 -0.000171799269 0.841829306108 -0.522997115741
0.815335679000 0.860742166230 -0.474103704702 -0.000003314789 -0.000168512331 0.000003050990 -0.000170235764 0.836435137542 -0.527046705793
0.821200684000 0.856619976272 -0.480579890760 -0.000037427349 -0.000157981818 -0.000033215319 -0.000148678071 0.831262845909 -0.530112737787
0.827065689000 0.853852037927 -0.487483437341 -0.000054345587 -0.000144223441 -0.000053983647 -0.000132688825 0.826791424215 -0.534759263746
