# GHZ S RI R 50.000000000000
0.000100000000 1.017037285016 -0.072986818235 0.001968735638 -0.000402123948 0.001166151074 0.000980330583 1.024301734364 -0.115975872754
0.005965004000 0.985720641713 -0.018375851925 -0.000012432690 0.000060954282 -0.000009959760 0.000086068901 0.948994944294 -0.243799765186
0.011830009000 0.982703251010 -0.011753683358 0.000020657995 0.000091767733 0.000041908020 0.000054183944 0.859560999027 -0.453635017822
0.017695014000 0.983662558601 -0.010817051710 0.000064757132 0.000116180740 0.000051764280 0.000137036151 0.724608433217 -0.644803574787
0.023560019000 0.985833017337 -0.012594020127 0.000091638074 0.000152778470 0.000079696819 0.000142388423 0.540182922207 -0.795959972472
0.029425024000 0.988260439114 -0.015808828897 0.000135636084 0.000150514420 0.000136148443 0.000147250465 0.320204652323 -0.893173001562
0.035290029000 0.990272329657 -0.019063966100 0.000203257150 0.000180958399 0.000196293309 0.000154673465 0.085201193868 -0.929745268293
0.041155034000 0.992295370949 -0.023585689356 0.000264398888 0.000164261849 0.000252180230 0.000151275309 -0.148212302664 -0.905857866189
0.047020039000 0.993675540988 -0.027503508070 0.000304183184 0.000122306496 0.000293717490 0.000136388502 -0.361384832037 -0.825256799096
0.052885043000 0.993842553015 -0.032727477416 0.000376858300 0.000112505807 0.000355219118 0.000102349953 -0.545293782513 -0.697337239338
0.058750048000 0.993823497443 -0.037156736562 0.000412977369 0.000067004203 0.000399061475 0.000056844974 -0.688360603387 -0.533757198827
0.064615053000 0.992752584121 -0.041324646061 0.000454293319 0.000018698364 0.000453616890 0.000012994333 -0.786029781520 -0.343242718214
0.070480058000 0.991070772810 -0.045533897828 0.000475447878 -0.000037051278 0.000480483546 -0.000045215414 -0.834009456882 -0.139712193048
0.076345063000 0.989312926526 -0.049715661928 0.000493076739 -0.000107002724 0.000521790842 -0.000109985155 -0.833493724578 0.065639751305
0.082210068000 0.987217339087 -0.053389366057 0.000524269365 -0.000172891710 0.000544210263 -0.000172584493 -0.784040083644 0.262848321660
0.088075073000 0.985325331697 -0.057061184480 0.000542929069 -0.000253297144 0.000554944463 -0.000260791412 -0.689653658506 0.440115368389
0.093940078000 0.983881854658 -0.060193443227 0.000520992734 -0.000328945040 0.000543751342 -0.000339566143 -0.558517491012 0.586602798680
0.099805083000 0.982934715868 -0.062803049294 0.000537385416 -0.000423240230 0.000521349348 -0.000433148578 -0.396776093795 0.697475864628
0.105670087000 0.982606543512 -0.065400853769 0.000523827315 -0.000506886690 0.000508852178 -0.000527422680 -0.218541968739 0.765597598177
0.111535092000 0.983132161485 -0.067727668919 0.000474687101 -0.000628880982 0.000488647152 -0.000629516571 -0.032431913396 0.790386497863
0.117400097000 0.984276423712 -0.069981007026 0.000410672383 -0.000771539907 0.000401656640 -0.000781510843 0.152570847992 0.770836922493
0.123265102000 0.986156184984 -0.072616889987 0.000337543338 -0.000711439307 0.000328869546 -0.000772021835 0.324770493666 0.713079028380
0.129130107000 0.988369563989 -0.075046116158 0.000277845808 -0.000937216384 0.000249602224 -0.000944750345 0.481059566363 0.615160057807
0.134995112000 0.990597595596 -0.077800432561 0.000138466008 -0.001053271838 0.000120935324 -0.001078488343 0.610476278213 0.481392090533
0.140860117000 0.992722667411 -0.080977731422 -0.000058397790 -0.001229738122 -0.000084773887 -0.001241227464 0.701397057696 0.313453791535
0.146725122000 0.993875712617 -0.084701542707 -0.000480219592 -0.001355498681 -0.000519758099 -0.001344758478 0.726772999706 0.123038373554
0.152590127000 0.994393837718 -0.087747221488 -0.001121792000 -0.000948566807 -0.001151361923 -0.000936047630 0.690384719321 -0.011797231953
0.158455131000 0.993522772674 -0.091472660018 -0.000904367012 -0.000189514500 -0.000931874505 -0.000164051030 0.696557274938 -0.123710148992
0.164320136000 0.992275933789 -0.096441269784 -0.000496406793 -0.000260089398 -0.000477040215 -0.000248332957 0.682813224686 -0.291232976756
0.170185141000 0.990355401999 -0.100568768680 -0.000397412235 -0.000460684240 -0.000414283895 -0.000450938822 0.600035809519 -0.463908193845
0.176050146000 0.987578015682 -0.105208826607 -0.000484958284 -0.000593974214 -0.000504208486 -0.000602339000 0.464505066456 -0.603804804551
0.181915151000 0.985059885425 -0.110376647975 -0.000626288857 -0.000625609607 -0.000664956786 -0.000620055104 0.296192685716 -0.701223844634
0.187780156000 0.982734818788 -0.114444640288 -0.000784033045 -0.000607672434 -0.000777842282 -0.000542720368 0.109458919444 -0.750808923885
0.193645161000 0.980896434068 -0.118611099229 -0.000889342875 -0.000533414856 -0.000912845846 -0.000500638113 -0.082724720682 -0.750948868592
0.199510166000 0.979386568102 -0.122121231594 -0.001004465184 -0.000440305892 -0.001018002369 -0.000399850352 -0.267838480489 -0.702638358752
0.205375171000 0.978471127313 -0.125533609727 -0.001089948554 -0.000340992579 -0.001112158138 -0.000296326115 -0.433936603967 -0.609112275050
0.211240175000 0.978516693989 -0.128498748634 -0.001183175608 -0.000214224545 -0.001183267743 -0.000154397983 -0.570409312478 -0.477331235459
0.217105180000 0.979607527415 -0.130408865893 -0.001240148421 -0.000049135920 -0.001246014472 -0.000009860411 -0.668510459035 -0.316359637259
0.222970185000 0.981109690093 -0.132175656358 -0.001305059686 0.000103484931 -0.001293193830 0.000149116085 -0.721974007783 -0.138416149355
0.228835190000 0.983276933489 -0.134310269137 -0.001340341342 0.000287600957 -0.001317832164 0.000307122442 -0.729478432044 0.043476062700
0.234700195000 0.985549680148 -0.136393905606 -0.001335841246 0.000452866001 -0.001304880420 0.000474264607 -0.693768583981 0.217684320966
0.240565200000 0.988139718631 -0.138256523014 -0.001313657180 0.000654331241 -0.001294930102 0.000640027837 -0.619730722762 0.374419668208
0.246430205000 0.989915392179 -0.139867984942 -0.001286574271 0.000821542848 -0.001258366941 0.000816801298 -0.513866266264 0.506466188738
0.252295210000 0.990764135924 -0.142470196277 -0.001224595962 0.001019512526 -0.001202706790 0.001007612264 -0.383858831485 0.608594811860
0.258160215000 0.990285382073 -0.145742138955 -0.001134573727 0.001186194028 -0.001123827715 0.001169583244 -0.236257106267 0.677629333936
0.264025219000 0.988747877431 -0.149973869473 -0.001082293544 0.001417877022 -0.001051559554 0.001409297349 -0.079369598026 0.711153192194
0.269890224000 0.986299826071 -0.154724064030 -0.000915092073 0.001607875844 -0.000886192419 0.001595315072 0.083381263554 0.709599282833
0.275755229000 0.983437102594 -0.159878183956 -0.000741506241 0.001806482811 -0.000710895841 0.001813711961 0.242955631379 0.667189077756
0.281620234000 0.980283034792 -0.165308734631 -0.000524466329 0.002042732112 -0.000483146157 0.002050172962 0.388812155942 0.585486673809
0.287485239000 0.977577416592 -0.170845777341 -0.000210036717 0.002298801979 -0.000163563590 0.002299104005 0.509856150466 0.465172979227
0.293350244000 0.975138549196 -0.176533833042 0.000239606098 0.002545328956 0.000315845570 0.002517990833 0.589728142398 0.309859647701
0.299215249000 0.973190169095 -0.181332828890 0.000927928936 0.002639230443 0.001002690585 0.002625944745 0.603460304882 0.139340343961
0.305080254000 0.971909600719 -0.186198895042 0.001755804742 0.002378477828 0.001808524806 0.002352973464 0.553151038789 0.017621185724
0.310945259000 0.971480050841 -0.189904908355 0.002445406344 0.001813195280 0.002496969627 0.001755921917 0.521317620613 -0.059811128221
0.316810263000 0.971924424839 -0.191766738488 0.002841773698 0.000521922012 0.002844148137 0.000455954554 0.493222371208 -0.127190687609
0.322675268000 0.973122183898 -0.193964409408 0.001942425132 -0.000443745006 0.001933046413 -0.000507387540 0.495226980712 -0.210021214677
0.328540273000 0.975053416017 -0.196075751106 0.001219189002 -0.000293074113 0.001194922165 -0.000323684056 0.467463713169 -0.341931465437
0.334405278000 0.977482604359 -0.197564979498 0.001003339623 0.000050236293 0.000978001019 0.000026779662 0.372347393889 -0.479999113645
0.340270283000 0.979641445145 -0.198962113010 0.001028666711 0.000315564272 0.001031798870 0.000278545051 0.221477935956 -0.579710942640
0.346135288000 0.981295548579 -0.200331581455 0.001177255197 0.000446504775 0.001183973061 0.000399716258 0.041704663396 -0.623957067728
0.352000293000 0.982168235341 -0.201843445108 0.001415501150 0.000429018058 0.001392669393 0.000360859501 -0.144886175050 -0.610441663044
0.357865298000 0.981532852030 -0.204678721247 0.001615137876 0.000308398759 0.001581303611 0.000232350177 -0.319118068228 -0.540418700874
0.363730303000 0.979995072179 -0.206912018092 0.001798459101 0.000106666450 0.001750351895 0.000016946254 -0.461989627215 -0.423785334315
0.369595307000 0.977925553342 -0.210034710418 0.001859290440 -0.000198919834 0.001807184363 -0.000273007006 -0.563178661047 -0.274874733508
0.375460312000 0.974106834401 -0.215622677524 0.001898469948 -0.000431864251 0.001827723670 -0.000477090261 -0.618989318209 -0.109109295322
0.381325317000 0.969454065718 -0.222597337399 0.001881135334 -0.000668731065 0.001823986270 -0.000737176677 -0.628575197997 0.062252646450
0.387190322000 0.965959125347 -0.229513815358 0.001837113025 -0.000910876848 0.001786245569 -0.000955057731 -0.594883504790 0.225702209724
0.393055327000 0.962962210428 -0.236026723181 0.001791713408 -0.001151114387 0.001736556110 -0.001187881079 -0.521898892627 0.372556006942
0.398920332000 0.960143198785 -0.242410160505 0.001712071773 -0.001410912629 0.001649853443 -0.001429031977 -0.416032978779 0.493859629349
0.404785337000 0.958161629214 -0.247698746922 0.001608748866 -0.001676439293 0.001552801490 -0.001687319204 -0.285849632894 0.583252857426
0.410650342000 0.957374916817 -0.252016935875 0.001451362119 -0.001964668024 0.001403361257 -0.001960142978 -0.139743486129 0.636918689164
0.416515347000 0.957286006996 -0.255865242666 0.001250489579 -0.002240996625 0.001201125862 -0.002236209608 0.013680227359 0.652164778259
0.422380351000 0.958149563601 -0.258605175780 0.001017089861 -0.002529063170 0.000945998683 -0.002525228747 0.163995585807 0.629095575745
0.428245356000 0.959903379164 -0.260216096977 0.000700314697 -0.002810396257 0.000661763171 -0.002794837173 0.302765609546 0.569760835563
0.434110361000 0.962182225972 -0.261532148911 0.000315766407 -0.003107783475 0.000253508967 -0.003059502744 0.421224549316 0.476287844957
0.439975366000 0.964871238028 -0.262191567239 -0.000209707580 -0.003342128326 -0.000285766733 -0.003309786040 0.509010093654 0.352960919682
0.445840371000 0.966611923323 -0.262959314513 -0.000921764411 -0.003543263685 -0.000997826697 -0.003488546178 0.552644438075 0.208756772222
0.451705376000 0.967836252419 -0.263320695351 -0.001832973448 -0.003450373044 -0.001921928947 -0.003377667626 0.537210810662 0.069627155603
0.457570381000 0.968200985522 -0.264095981901 -0.002729253344 -0.002937355054 -0.002784212709 -0.002821948374 0.486469038129 -0.018290465575
0.463435386000 0.967175547697 -0.265727880789 -0.003392720262 -0.002168943733 -0.003414703774 -0.002050095739 0.461331892788 -0.079302382808
0.469300391000 0.964843076147 -0.268246545702 -0.003898356743 -0.000926138781 -0.003891685624 -0.000805860278 0.432413306288 -0.145667152019
0.475165395000 0.961237744947 -0.272080450908 -0.003279721120 0.000523325012 -0.003240092148 0.000607326529 0.414647170579 -0.204514080562
0.481030400000 0.957285657976 -0.276702932814 -0.002146071603 0.000842067240 -0.002097273782 0.000915902545 0.394835804837 -0.295492409184
0.486895405000 0.953059436796 -0.283166290138 -0.001556226604 0.000527764046 -0.001521887796 0.000585514249 0.331708422915 -0.406187091156
0.492760410000 0.948925165834 -0.289671706684 -0.001413544132 0.000179980450 -0.001393642437 0.000219185681 0.216576270281 -0.499861010203
0.498625415000 0.945317526089 -0.296409002406 -0.001503397860 -0.000053156925 -0.001501067505 0.000008285469 0.067737071518 -0.551019630077
0.504490420000 0.942814857925 -0.302684411958 -0.001666279764 -0.000107804230 -0.001666626473 -0.000056092435 -0.092617948394 -0.552859568441
0.510355425000 0.941286696390 -0.308293123014 -0.001844476422 -0.000046643803 -0.001835073352 0.000027880534 -0.247508405639 -0.507333644583
0.516220430000 0.940410449185 -0.312648001280 -0.002009376464 0.000085682923 -0.001991928605 0.000170912726 -0.383168969522 -0.419338819773
0.522085434000 0.941054723326 -0.315955761671 -0.002153908782 0.000287970748 -0.002123226918 0.000361910239 -0.488900092649 -0.297815023665
0.527950439000 0.942533859095 -0.318908696322 -0.002257017541 0.000546988346 -0.002234571804 0.000626327918 -0.557369314706 -0.153103524044
0.533815444000 0.944694753153 -0.320661824564 -0.002339070738 0.000834639825 -0.002269411701 0.000921487852 -0.583565084552 0.002520864862
0.539680449000 0.947285458398 -0.321464943165 -0.002356940605 0.001169874194 -0.002266969413 0.001214893008 -0.567923567900 0.156710282427
0.545545454000 0.949715704104 -0.321935473265 -0.002322697718 0.001499094633 -0.002224064291 0.001558534184 -0.514081765219 0.298037138512
0.551410459000 0.951649335531 -0.322031801386 -0.002245272456 0.001865211317 -0.002129886268 0.001903254694 -0.428358148862 0.418165761333
0.557275464000 0.952365661755 -0.322003977720 -0.002085719476 0.002245862034 -0.001972326057 0.002244698260 -0.318205352753 0.510937748087
0.563140469000 0.951970409692 -0.322586660209 -0.001893860438 0.002605539761 -0.001781476512 0.002575396354 -0.191857755590 0.572729442254
0.569005474000 0.950051436513 -0.323900411644 -0.001629172984 0.002972583130 -0.001510137735 0.002937841356 -0.056538075209 0.601803016899
0.574870478000 0.946742987865 -0.325999254583 -0.001323868827 0.003341727751 -0.001184325820 0.003296330683 0.080436098345 0.596845098649
0.580735483000 0.942561550521 -0.329454135387 -0.000878548164 0.003691296087 -0.000767091136 0.003629994965 0.211955005009 0.557051156781
0.586600488000 0.937395095067 -0.334294951196 -0.000356789096 0.004041979115 -0.000246711154 0.003976245504 0.328984334107 0.482012584273
0.592465493000 0.932473446258 -0.340415354792 0.000333241710 0.004315980737 0.000449564875 0.004270348831 0.418577141493 0.373673766958
0.598330498000 0.927513862130 -0.346876762385 0.001213802312 0.004456734580 0.001318259776 0.004394379502 0.464292209929 0.241905170876
0.604195503000 0.923583547537 -0.353737526079 0.002243065197 0.004321839196 0.002350757734 0.004229599558 0.451357756978 0.112482240411
0.610060508000 0.920006005409 -0.360745555314 0.003182266275 0.003766190529 0.003282062768 0.003661871783 0.394515537122 0.029526332743
0.615925513000 0.917447239536 -0.367034901950 0.003809856731 0.003052082194 0.003853917767 0.002946445847 0.357789817252 -0.001443061262
0.621790518000 0.916282463079 -0.372601150059 0.004426802042 0.002430639805 0.004453805185 0.002323385170 0.348166225284 -0.048203904998
0.627655522000 0.917444145088 -0.376516901857 0.005190919785 0.001317472553 0.005202469811 0.001216022677 0.312598050100 -0.100581472296
0.633520527000 0.918802290143 -0.379930829452 0.005269813222 -0.000453154704 0.005201479525 -0.000554348890 0.281347788797 -0.122012371022
0.639385532000 0.921128781327 -0.382582236588 0.004127003945 -0.001889825589 0.004022705208 -0.001976517946 0.281207599932 -0.154208828929
0.645250537000 0.923287120025 -0.384153737969 0.002676483471 -0.002128813673 0.002548367067 -0.002176846141 0.273741351701 -0.224858460910
0.651115542000 0.925460130557 -0.385348382189 0.001828914705 -0.001683583841 0.001759090069 -0.001704024123 0.227362777025 -0.314998674501
0.656980547000 0.926822360082 -0.385948209392 0.001583981879 -0.001161904750 0.001520453650 -0.001212980791 0.132808505549 -0.396642317372
0.662845552000 0.927467020037 -0.386495764786 0.001633790135 -0.000787505814 0.001567379422 -0.000858256084 -0.000832915875 -0.440688007905
0.668710557000 0.926629464879 -0.387010412775 0.001811174446 -0.000571101165 0.001770038648 -0.000660733390 -0.149466369672 -0.432499019950
0.674575562000 0.923965919820 -0.388461953486 0.002048276683 -0.000553605775 0.001986954948 -0.000659644584 -0.289066343426 -0.372807099377
0.680440566000 0.919934504666 -0.390864763313 0.002319156631 -0.000700736110 0.002214969063 -0.000800677628 -0.401893012188 -0.271769100554
0.686305571000 0.914489566496 -0.394279219304 0.002471191834 -0.000932652084 0.002397073231 -0.001022241662 -0.477893263616 -0.143275899662
0.692170576000 0.908121717194 -0.400223490932 0.002611025734 -0.001258458406 0.002519178464 -0.001369596066 -0.513127823261 -0.000510530065
0.698035581000 0.902291920883 -0.405973926787 0.002654703030 -0.001669994942 0.002584012830 -0.001751534548 -0.507576970256 0.142455914338
0.703900586000 0.896593676417 -0.412174646692 0.002623876831 -0.002104399402 0.002540849404 -0.002188247872 -0.464939400121 0.275376445032
0.709765591000 0.891857897260 -0.418391666211 0.002506214852 -0.002581327548 0.002434801300 -0.002656298433 -0.390393955250 0.389693448803
0.715630596000 0.888296716577 -0.424618737411 0.002309419782 -0.003075887232 0.002218535782 -0.003133994220 -0.290119779243 0.478353270491
0.721495601000 0.886029385890 -0.431128401675 0.002027122123 -0.003571897530 0.001938664822 -0.003624976068 -0.171736320260 0.536447021620
0.727360606000 0.885140381854 -0.436665990080 0.001639416706 -0.004070777170 0.001523680641 -0.004095002108 -0.043827428536 0.560142996898
0.733225610000 0.886141429086 -0.441722305695 0.001130856074 -0.004559606239 0.000996190245 -0.004561369599 0.084754098180 0.547743819659
0.739090615000 0.888318071887 -0.445418967066 0.000476347146 -0.005032474283 0.000351860555 -0.004979144448 0.204297050720 0.498493092199
0.744955620000 0.890688973161 -0.447462121531 -0.000358914875 -0.005426071853 -0.000485358006 -0.005333296832 0.301837028948 0.414505809450
0.750820625000 0.893643254559 -0.449213041212 -0.001395916886 -0.005674757375 -0.001517281788 -0.005551768168 0.362784116639 0.302605079417
0.756685630000 0.896354981487 -0.449674728493 -0.002634559250 -0.005592600887 -0.002731413956 -0.005425485087 0.371301356411 0.180395930096
0.762550635000 0.898165928440 -0.449865664021 -0.003846649475 -0.005027352206 -0.003932402965 -0.004843880486 0.324119318468 0.084350441945
0.768415640000 0.898407517262 -0.450421067071 -0.004741844446 -0.004058959233 -0.004768979725 -0.003893136259 0.259785267616 0.050669887188
0.774280645000 0.896977555972 -0.450701925422 -0.005163371689 -0.003256108230 -0.005187773029 -0.003052356079 0.238136732600 0.052746645059
0.780145650000 0.893894840091 -0.451712930034 -0.005736118407 -0.002646180539 -0.005751091691 -0.002470865903 0.243863652446 0.025793240059
0.786010654000 0.889266287991 -0.453013562706 -0.006650492142 -0.001620208678 -0.006638354921 -0.001406900024 0.219524043014 -0.018240376047
0.791875659000 0.883569138147 -0.455223652358 -0.007137757940 0.000232006422 -0.007103490197 0.000435713612 0.178958883393 -0.028225176172
0.797740664000 0.877536792831 -0.458522990913 -0.006562832414 0.002389189395 -0.006468698160 0.002539526029 0.171152531967 -0.018538465029
0.803605669000 0.870868780225 -0.462968926138 -0.004856784270 0.003824071560 -0.004765814866 0.003948530328 0.188705730052 -0.036654247829
0.809470674000 0.864962943782 -0.468248649658 -0.003011228384 0.003962269611 -0.002911102740 0.004028912083 0.191221402356 -0.090468272468
0.815335679000 0.859510662467 -0.474204990728 -0.001829824733 0.003313379625 -0.001764175532 0.003354129530 0.159035624306 -0.155394858289
0.821200684000 0.855094457377 -0.480568616175 -0.001469182849 0.002580255726 -0.001372694524 0.002651709952 0.092743439829 -0.214585183177
0.827065689000 0.852215711153 -0.487631926926 -0.001434216240 0.002107863169 -0.001408177982 0.002140282862 -0.010176629528 -0.250919554022
