Frequency,S11_Magnitude,S11_Magnitude (linear),S11_Phase,S11_Unwrapped Phase,S12_Magnitude,S12_Magnitude (linear),S12_Phase,S12_Unwrapped Phase,S21_Magnitude,S21_Magnitude (linear),S21_Phase,S21_Unwrapped Phase,S22_Magnitude,S22_Magnitude (linear),S22_Phase,S22_Unwrapped Phase,
1000000,-17.90034054,0.1273453154,-70.31621003,-70.31621003,-0.466306663,0.9477300842,-91.91219591,-91.91219591,-0.5669315473,0.9368141085,-92.19282308,-92.19282308,-17.75951203,0.1294268551,-68.10234425,-68.10234425,
1487781,-20.02066989,0.09976231207,-142.6429971,-142.6429971,-0.7812393998,0.9139828149,-135.0242657,-135.0242657,-0.7976917992,0.9122532306,-134.71101,-134.71101,-20.27628725,0.09686918319,-141.3160811,-141.3160811,
1975562,-23.22374931,0.06899419221,129.4050377,-230.5949623,-0.8629101355,0.9054291935,-177.3854873,-177.3854873,-0.8572020049,0.9060244125,-177.1062576,-177.1062576,-23.55204968,0.06643508824,130.1445947,-229.8554053,
2463343,-23.92105937,0.06367178593,30.23547306,-329.7645269,-0.9012260348,0.9014438876,139.5699877,-220.4300123,-0.8973551505,0.9018457074,139.6929024,-220.3070976,-24.1600085,0.06194404692,34.19158798,-325.808412,
2951124,-22.74370334,0.07291465627,-51.6454309,-411.6454309,-1.031540368,0.8880204796,96.39314609,-263.6068539,-1.040976351,0.8870562955,96.45059127,-263.5494087,-23.74520934,0.06497398939,-45.00255254,-405.0025525,
3438905,-22.979139,0.0709648109,-121.220553,-481.220553,-1.169215893,0.8740558933,53.69277656,-306.3072234,-1.187821439,0.8721856321,53.88808237,-306.1119176,-25.11757793,0.05547803925,-116.7726317,-476.7726317,
3926686,-25.4767974,0.05323044907,168.395588,-551.604412,-1.245529549,0.8664101323,11.23344901,-348.766551,-1.249594159,0.8660047858,11.45386351,-348.5461365,-28.49881217,0.03758888051,161.2765441,-558.7234559,
4414467,-29.64705577,0.03293420705,82.56526601,-637.434734,-1.299953081,0.860998403,-31.55039099,-391.550391,-1.294508261,0.861538296,-31.40176866,-391.4017687,-30.39552916,0.03021506565,61.22855844,-658.7714416,
4902248,-30.60761774,0.02948622078,-21.63788839,-741.6378884,-1.392671872,0.851856431,-74.41829909,-434.4182991,-1.39338616,0.8517863811,-74.31614253,-434.3161425,-29.39624461,0.03389906888,-23.81778475,-743.8177848,
5390029,-29.5259866,0.03339647812,-102.1144782,-822.1144782,-1.496843932,0.841700923,-117.0018432,-477.0018432,-1.500694773,0.8413278422,-116.8651194,-476.8651194,-30.43800283,0.03006767576,-92.12546506,-812.1254651,
5877810,-31.4146949,0.0268698508,-168.6948618,-888.6948618,-1.559605101,0.8356410093,-159.4560175,-519.4560175,-1.557733003,0.8358211372,-159.3359421,-519.3359421,-35.95811415,0.0159255446,-162.8130136,-882.8130136,
6365591,-39.00175251,0.01121792093,118.2836372,-961.7163628,-1.608759013,0.8309254277,157.8492215,-562.1507785,-1.607125506,0.83108171,157.9430361,-562.0569639,-44.02267189,0.006293125685,49.45232922,-1030.547671,
6853372,-41.23920037,0.008670416927,-56.70554412,-776.7055441,-1.685557152,0.8236110077,115.1261698,-604.8738302,-1.687737104,0.8234043268,115.198369,-604.801631,-36.75702843,0.01452608492,-52.29404332,-1132.294043,
7341153,-35.64541094,0.01650933016,-124.1629859,-844.1629859,-1.766862825,0.8159374347,72.57185155,-647.4281484,-1.768115004,0.8158198156,72.65532892,-647.3446711,-37.09863282,0.01396588169,-109.3031735,-1189.303173,
7828934,-36.75439383,0.01453049163,-170.7349667,-890.7349667,-1.818438748,0.8111068378,30.01685336,-689.9831466,-1.81659632,0.8112789059,30.12699873,-689.8730013,-44.82089005,0.005740576353,-157.2615785,-1237.261579,
8316715,-45.55688959,0.005274186958,153.847999,-926.152001,-1.864533309,0.8068138309,-12.67105516,-732.6710552,-1.861599083,0.8070864309,-12.57129072,-732.5712907,-45.62472477,0.005233156968,-27.67914942,-1107.679149,
8804496,-43.5707124,0.006629249739,-97.37192803,-817.371928,-1.930354058,0.8007229885,-55.37637711,-775.3763771,-1.929197334,0.80082963,-55.26374722,-775.2637472,-37.30922706,0.01363134304,-71.01472398,-1151.014724,
9292277,-36.57267545,0.01483768776,-133.7072578,-853.7072578,-1.998936017,0.7944255424,-97.92215833,-817.9221583,-2.001865081,0.7941576906,-97.76833792,-817.7683379,-36.05368338,0.01575127925,-116.6696509,-1196.669651,
9780058,-36.61440008,0.0147665825,-177.8435047,-897.8435047,-2.048125097,0.7899393443,-140.377313,-860.377313,-2.047365529,0.7900084263,-140.2378495,-860.2378495,-39.39889998,0.01071655016,-165.9046865,-1245.904686,
10267839,-43.41851817,0.00674643113,134.993032,-945.006968,-2.087497361,0.7863667319,176.9964748,-903.0035252,-2.086272492,0.7864776318,177.1479688,-902.8520312,-56.43248018,0.001507911978,109.5434177,-1330.456582,
10755620,-46.09862513,0.004955286208,-70.3628182,-790.3628182,-2.142660106,0.7813884631,134.3217242,-945.6782758,-2.144167475,0.7812528708,134.4760765,-945.5239235,-42.11986103,0.007834421774,-61.63750003,-1501.6375,
11243401,-36.86761371,0.01434231691,-117.2311535,-837.2311535,-2.206073351,0.7757045385,91.79957421,-988.2004258,-2.210590277,0.7753012535,91.93274455,-988.0672554,-38.47154832,0.01192401693,-107.8910403,-1547.89104,
11731182,-35.86272767,0.01610139915,-157.3159486,-877.3159486,-2.253754807,0.7714579513,49.3285871,-1030.671413,-2.25213901,0.7716014755,49.49162753,-1030.508372,-40.58775613,0.009345707692,-151.2317221,-1591.231722,
12218963,-40.29628257,0.009664644231,175.2185922,-904.7814078,-2.288160429,0.7684081784,6.746006292,-1073.253994,-2.2843227,0.768747763,6.904496652,-1073.095503,-52.89198641,0.002266734631,-146.2739075,-1586.273907,
12706744,-43.90829605,0.006376541601,-125.6667746,-845.6667746,-2.335588535,0.7642238256,-35.88762826,-1115.887628,-2.335973373,0.7641899666,-35.73762722,-1115.737627,-41.81630318,0.008113062859,-87.21594067,-1527.215941,
13194525,-35.5054929,0.01677742689,-131.3711265,-851.3711265,-2.39275317,0.7592107371,-78.38992367,-1158.389924,-2.398414212,0.7587160817,-78.24306407,-1158.243064,-37.60494494,0.01317506459,-126.7496975,-1566.749698,
13682306,-33.08869302,0.02215977513,-165.4368606,-885.4368606,-2.440062847,0.7550867642,-120.8424382,-1200.842438,-2.443914633,0.7547519928,-120.6468971,-1200.646897,-38.28423414,0.01218395518,-177.7429887,-1617.742989,
14170087,-34.62225428,0.01857322354,160.3093795,-919.6906205,-2.475142617,0.7520433393,-163.3940455,-1243.394046,-2.47395732,0.7521459719,-163.1675422,-1243.167542,-44.38422833,0.00603654696,104.3610115,-1695.638988,
14657869,-41.03989904,0.008871663239,142.9635437,-937.0364563,-2.517450832,0.7483891084,154.0175674,-1285.982433,-2.515950257,0.7485184113,154.2179766,-1285.782023,-41.56899484,0.008347381414,-27.94198162,-1827.941982,
15145650,-42.28183171,0.007689682601,-157.6580791,-877.6580791,-2.568797001,0.743978097,111.5205296,-1328.47947,-2.575064195,0.7434414826,111.7069543,-1328.293046,-36.36829706,0.01519095744,-90.94877145,-1890.948771,
15633431,-36.71757832,0.01459221044,-175.5413852,-895.5413852,-2.61716954,0.7398463286,69.09390817,-1370.906092,-2.619188341,0.7396743912,69.33491507,-1370.665085,-35.59626334,0.01660301014,-142.2197836,-1942.219784,
16121212,-37.12571099,0.01392241101,147.5978399,-932.4021601,-2.650049548,0.7370509709,26.5944153,-1413.405585,-2.64715395,0.7372967211,26.82092581,-1413.179074,-39.29223507,0.01084896346,168.8822906,-1991.117709,
16608993,-44.59450428,0.005892163454,105.8441573,-974.1558427,-2.685325816,0.7340636337,-15.97949595,-1455.979496,-2.686120861,0.7339964458,-15.7688355,-1455.768835,-55.62047378,0.00165567965,91.60818452,-2068.391815,
17096774,-45.78424682,0.005137923798,-97.60505217,-817.6050522,-2.735426345,0.7298417156,-58.47236441,-1498.472364,-2.7392935,0.7295168458,-58.26628225,-1498.266282,-42.41891751,0.007569272218,-83.80040415,-1883.800404,
17584555,-37.76301746,0.01293746319,-142.8605888,-862.8605888,-2.780910581,0.7260298405,-100.8903406,-1540.890341,-2.784807636,0.7257041693,-100.6408007,-1540.640801,-38.94715822,0.0112886521,-131.3227902,-1931.32279,
18072336,-37.60379842,0.01317680378,-179.9838588,-899.9838588,-2.812601474,0.7233857117,-143.3621448,-1583.362145,-2.810844343,0.7235320654,-143.1232223,-1583.123222,-42.24590838,0.007721551656,-171.1338554,-1971.133855,
18560117,-43.34688988,0.006802295683,163.2955082,-916.7044918,-2.845735822,0.7206314452,174.0693258,-1625.930674,-2.843705472,0.7207999144,174.3141131,-1625.685887,-54.15284649,0.001960458601,-111.4543176,-1911.454318,
19047898,-42.76330747,0.007275027287,-132.3401036,-852.3401036,-2.890203836,0.7169515503,131.5710706,-1668.428929,-2.893653296,0.7166668812,131.8063478,-1668.193652,-40.31109942,0.009648171824,-97.27527286,-1897.275273,
19535679,-36.30680386,0.01529888595,-150.8760994,-870.8760994,-2.936702584,0.7131237012,89.159777,-1710.840223,-2.937542527,0.7130547441,89.42937221,-1710.570628,-36.75237955,0.01453386167,-137.1777744,-1937.177774,
20023460,-35.54086887,0.0167092346,175.9135441,-904.0864559,-2.96871104,0.7105005983,46.71546102,-1753.284539,-2.963400542,0.7109351267,46.99951634,-1753.000484,-38.2637487,0.01221272463,-178.2420728,-1978.242073,
20511241,-39.55892483,0.01052092097,148.087489,-931.912511,-2.999260851,0.7080060315,4.174281818,-1795.825718,-2.994148913,0.7084228395,4.437983147,-1795.562017,-47.79168158,0.004077706099,149.2128475,-2010.787153,
20999022,-47.70250175,0.00411978842,-157.7960956,-877.7960956,-3.039380121,0.704743362,-38.32666155,-1838.326662,-3.039477298,0.7047354775,-38.07084938,-1838.070849,-44.44193422,0.005996575264,-92.23266737,-1892.232667,
21486803,-37.80819021,0.01287035392,-147.647893,-867.647893,-3.084135983,0.7011213641,-80.74299306,-1880.742993,-3.083848014,0.7011446093,-80.44476213,-1880.444762,-37.48741649,0.01335454745,-130.8784923,-1930.878492,
21974584,-35.54991472,0.01669184195,179.2527283,-900.7472717,-3.115624184,0.6985842513,-123.173105,-1923.173105,-3.111334069,0.6989293797,-122.8628802,-1922.86288,-37.14972456,0.01388397337,-172.6412054,-1972.641205,
22462365,-38.22982024,0.01226052276,146.5040155,-933.4959845,-3.143543459,0.6963423792,-165.6936401,-1965.69364,-3.136309669,0.6969225493,-165.3799136,-1965.379914,-42.20284553,0.007759928571,148.7298268,-2011.270173,
22950146,-51.3295358,0.002713458665,159.0294642,-920.9705358,-3.180224061,0.6934079186,151.8265285,-2008.173472,-3.178089261,0.693578364,152.1100321,-2007.889968,-54.85109461,0.00180902792,-100.0459145,-1900.045915,
23437927,-39.49932907,0.01059335549,-134.9831183,-854.9831183,-3.222819572,0.6900157779,109.4237368,-2050.576263,-3.223845911,0.6899342493,109.7191772,-2050.280823,-40.05840277,0.009932986874,-125.2290485,-1925.229048,
23925708,-35.49886075,0.01679024225,-168.0142178,-888.0142178,-3.257525922,0.6872641716,66.99790064,-2093.002099,-3.251244333,0.6877613772,67.33082226,-2092.669178,-38.00741547,0.01257851078,-168.2853948,-1968.285395,
24413489,-36.63636015,0.01472929608,158.8632219,-921.1367781,-3.281384131,0.6853789999,24.52337228,-2135.476628,-3.274765503,0.6859014561,24.83938115,-2135.160619,-41.37726093,0.008533691787,149.1344759,-2010.865524,
24901270,-44.15704252,0.006196520262,142.6832123,-937.3167877,-3.314691867,0.6827558133,-17.96410471,-2177.964105,-3.313682839,0.6828351328,-17.6673628,-2177.667363,-65.16268749,0.0005519066482,41.78445667,-2118.215543,
25389051,-43.61910729,0.006592416466,-140.0987741,-860.0987741,-3.354860696,0.6796056256,-60.61009419,-2220.610094,-3.351447725,0.6798727175,-60.47610134,-2220.476101,-42.86331525,0.007191744296,-105.6464209,-2265.646421,
25876832,-36.46069207,0.01503022204,-161.9588605,-881.9588605,-3.389585798,0.676894071,-103.0179121,-2263.017912,-3.380213846,0.6776248243,-102.850828,-2262.850828,-38.35685436,0.0120825133,-155.1154155,-2315.115415,
26364613,-35.89687676,0.01603821984,165.8205973,-914.1794027,-3.4112222,0.6752100378,-145.4981445,-2305.498144,-3.400855277,0.6760164066,-145.3123537,-2305.312354,-39.84173438,0.01018388019,160.4561078,-2359.543892,
26852394,-40.27333202,0.00969021469,141.2788525,-938.7211475,-3.442051751,0.6728177068,172.0278807,-2347.972119,-3.434185744,0.6734272915,172.1879482,-2347.812052,-50.9365759,0.002839037997,103.7379136,-2416.262086,
27340175,-45.47976406,0.005321227132,-161.6232936,-881.6232936,-3.484657493,0.6695255044,129.6304358,-2390.369564,-3.477670045,0.6700643274,129.8013115,-2390.198689,-43.42551882,0.006740995841,-93.99322675,-2253.993227,
27827956,-37.39072298,0.0135040442,-162.7769108,-882.7769108,-3.520328421,0.6667815571,87.2486996,-2432.7513,-3.50909379,0.6676445536,87.45820161,-2432.541798,-37.66014056,0.01309160738,-142.3753759,-2302.375376,
28315738,-35.86750585,0.01609254408,166.8106354,-913.1893646,-3.543440511,0.6650096914,44.80341913,-2475.196581,-3.529613616,0.6660691501,45.03038337,-2474.969617,-37.93026097,0.01269074015,175.0325164,-2344.967484,
28803519,-39.26366194,0.01088471102,137.123386,-942.876614,-3.570737171,0.6629230831,2.36121992,-2517.63878,-3.558013946,0.6638948545,2.575543834,-2517.424456,-44.40300275,0.006023513144,134.2495751,-2385.750425,
29291300,-49.75902192,0.003251239062,-179.4064671,-899.4064671,-3.610442938,0.6598995818,-40.0067883,-2560.006788,-3.603175601,0.6604519396,-39.79578009,-2559.79578,-48.54057921,0.00374085642,-95.20157092,-2255.201571,
29779081,-38.81378237,0.01146333229,-154.1699118,-874.1699118,-3.646642094,0.6571551191,-82.38258156,-2602.382582,-3.638029705,0.6578070364,-82.0843856,-2602.084386,-38.68700054,0.01163188161,-136.0989423,-2296.098942,
30266862,-36.18337837,0.01551783328,174.7884215,-905.2115785,-3.672848458,0.6551753918,-124.8035412,-2644.803541,-3.661324332,0.6560452319,-124.4780077,-2644.478008,-37.65631321,0.01309737733,-176.6361161,-2336.636116,
30754643,-38.44739779,0.01195721699,142.0237156,-937.9762844,-3.695779722,0.6534479711,-167.2667475,-2687.266748,-3.687910004,0.6540402861,-166.9524586,-2686.952459,-41.79937724,0.008128887962,143.8564485,-2376.143552,
31242424,-49.99460429,0.003164242689,139.8720049,-940.1279951,-3.732638728,0.6506809074,150.2893267,-2729.710673,-3.727488715,0.6510668216,150.5839245,-2729.416076,-62.72292591,0.0007308928349,-116.7569669,-2276.756967,
31730205,-40.93380432,0.008980691626,-142.0124524,-862.0124524,-3.768134665,0.6480272472,107.9024827,-2772.097517,-3.761411478,0.6485290374,108.2235335,-2771.776467,-40.98182782,0.008931175198,-128.0047448,-2288.004745,
32217986,-36.67997232,0.01465552511,-171.4534938,-891.4534938,-3.792191202,0.6462349468,65.48122974,-2814.51877,-3.782529295,0.6469541979,65.82569029,-2814.17431,-38.5474806,0.01182023116,-167.0173696,-2327.01737,
32705767,-37.64849618,0.01310916986,157.193357,-922.806643,-3.814229066,0.644597396,23.01229299,-2856.987707,-3.805301214,0.6452602905,23.31755372,-2856.682446,-41.65956684,0.008260791445,155.0088395,-2364.99116,
33193548,-44.97484508,0.005639722642,144.6788281,-935.3211719,-3.848625243,0.6420498338,-19.40826589,-2899.408266,-3.842941897,0.6424700769,-19.16114438,-2899.161144,-63.81065934,0.0006448623672,-162.2714795,-2322.271479,
33681329,-42.17813957,0.007782032165,-146.1042138,-866.1042138,-3.886189961,0.6392790937,-61.82353168,-2941.823532,-3.880267425,0.6397151393,-61.5611871,-2941.561187,-41.051812,0.008859503829,-118.4966936,-2278.496694,
34169110,-36.83240509,0.01440057209,-167.7365833,-887.7365833,-3.911130601,0.6374461023,-104.2495761,-2984.249576,-3.903429,0.6380115634,-103.9752706,-2983.975271,-37.60263145,0.01317857423,-155.8382786,-2315.838279,
34656891,-36.94833858,0.01420963986,160.8775096,-919.1224904,-3.930730181,0.6360093364,-146.7045602,-3026.70456,-3.92388543,0.636510729,-146.4340465,-3026.434046,-39.08802754,0.01110704735,166.0797026,-2353.920297,
35144672,-43.04574006,0.007042275272,138.2999946,-941.7000054,-3.962749396,0.6336691005,170.8608507,-3069.139149,-3.955532387,0.6341958278,171.108559,-3068.891441,-48.05940359,0.003953937686,140.3780078,-2379.621992,
35632453,-44.22300974,0.006149637452,-139.9263368,-859.9263368,-3.999794073,0.6309723036,128.4623352,-3111.537665,-3.994669214,0.6313447005,128.7125283,-3111.287472,-44.48634132,0.005965995675,-124.5054549,-2284.505455,
36120234,-36.80368514,0.01444826647,-157.1470851,-877.1470851,-4.026046534,0.6290681153,86.0581654,-3153.941835,-4.019236489,0.6295615205,86.33514911,-3153.664851,-38.51388938,0.01186603243,-156.1163369,-2316.116337,
36608015,-35.69876507,0.01640823044,171.6459822,-908.3540178,-4.044925279,0.6277023233,43.62927798,-3196.370722,-4.039110051,0.6281227124,43.89729017,-3196.10271,-38.63105561,0.01170704316,164.7677775,-2355.232222,
37095796,-39.3042385,0.01083398113,145.2131736,-934.7868264,-4.07367431,0.6256281544,1.212928617,-3238.787071,-4.0682218,0.6260210116,1.453985379,-3238.546015,-45.03982119,0.005597691251,123.9553536,-2396.044646,
37583577,-45.83122311,0.005110211144,-171.0197399,-891.0197399,-4.108509698,0.6231240522,-41.18332313,-3281.183323,-4.104766636,0.6233926367,-40.94384917,-3280.943849,-48.4813152,0.003766467636,-106.9479421,-2266.947942,
38071358,-37.79871848,0.01288439635,-158.3468364,-878.3468364,-4.138654923,0.620965188,-83.58493561,-3323.584936,-4.132805691,0.6213834978,-83.31189345,-3323.311893,-38.90551928,0.01134289824,-143.6764533,-2303.676453,
38559139,-35.54971736,0.01669222123,173.6451129,-906.3548871,-4.156342914,0.6197019379,-126.0078605,-3366.007861,-4.151680001,0.6200347066,-125.7157855,-3365.715786,-37.56034662,0.01324288688,175.5058358,-2344.494164,
39046920,-37.90987246,0.01272056429,143.4439775,-936.5560225,-4.182686924,0.6178252503,-168.4130475,-3408.413047,-4.177699891,0.6181800787,-168.1670019,-3408.167002,-41.1592178,0.008750625744,134.4706418,-2385.529358,
39534701,-47.45485155,0.004238941495,155.1180321,-924.8819679,-4.217247369,0.6153718583,149.1799406,-3450.820059,-4.213647977,0.6156269183,149.4300466,-3450.569953,-63.99160598,0.0006315673948,176.7282995,-2343.271701,
40022482,-39.70367771,0.01034703968,-151.3900092,-871.3900092,-4.246997904,0.6132677187,106.7775481,-3493.222452,-4.243335984,0.6135263233,107.0745628,-3492.925437,-41.17661279,0.008733118648,-137.6198843,-2297.619884,
40510263,-35.87691541,0.01607512021,-176.6599979,-896.6599979,-4.266326796,0.6119045185,64.38718779,-3535.612812,-4.261670011,0.6122326682,64.71632352,-3535.283676,-38.08044237,0.01247319988,-177.1019294,-2337.101929,
40998044,-36.94276462,0.01421876148,153.1153139,-926.8846861,-4.291146372,0.610158522,21.98049877,-3578.019501,-4.285393369,0.6105627876,22.27926488,-3577.720735,-40.22175861,0.009747922541,141.5550832,-2378.444917,
41485826,-44.18273459,0.006178218596,145.1055359,-934.8944641,-4.325039044,0.6077822993,-20.42925462,-3620.429255,-4.318010693,0.6082742968,-20.12701093,-3620.127011,-53.9212765,0.00201342833,107.5153112,-2412.484689,
41973607,-41.10220058,0.008808256866,-150.3890065,-870.3890065,-4.354583824,0.605718459,-62.7993095,-3662.79931,-4.350324992,0.6060155254,-62.50771597,-3662.507716,-43.32323981,0.006820842315,-128.828482,-2288.828482,
42461388,-35.7741371,0.01626646357,-168.0097804,-888.0097804,-4.374562509,0.6043268282,-105.2063301,-3705.20633,-4.373224271,0.6044199442,-104.8661234,-3704.866123,-38.88341859,0.01137179627,-169.570929,-2329.570929,
42949169,-35.35766862,0.0170654038,163.5710449,-916.4289551,-4.395465623,0.602874228,-147.6003694,-3747.600369,-4.393572597,0.6030056344,-147.2796625,-3747.279663,-40.40307659,0.009546543826,145.640436,-2374.359564,
43436950,-39.15340164,0.01102376427,146.7248511,-933.2751489,-4.427584224,0.6006490421,170.0077612,-3789.992239,-4.422835449,0.6009775205,170.3074192,-3789.692581,-52.20859384,0.002452281421,75.2698995,-2444.7301,
43924731,-41.204235,0.008705390358,-179.7563163,-899.7563163,-4.459590467,0.5984398103,127.6275878,-3832.372412,-4.454432721,0.5987952739,127.9482017,-3832.051798,-42.35236698,0.007627490074,-103.4214665,-2263.421466,
44412512,-36.5269061,0.01491607969,-179.6222056,-899.6222056,-4.482818656,0.5968415742,85.24711261,-3874.752887,-4.47619551,0.5972968502,85.61145158,-3874.388548,-37.12476517,0.01392392712,-150.0541502,-2310.05415,
