# GHZ S RI R 50.000000000000
0.000000000000 0.000000010000 0.0000000000000 0.0000000000000 -0.980000000000 0.0000000000000 -0.980000000000 0.000000010000 0.0000000000000
0.001000000000 0.047376850475 -0.123297193675 -0.031954701201 -0.943085586853 -0.035608295141 -0.942562682562 0.044732450679 -0.118216485133
0.001487781000 -0.079662754718 -0.061083319407 -0.641371815735 -0.648570919755 -0.646165568487 -0.647034883233 -0.076203799460 -0.061425208649
0.001975562000 -0.044106667689 0.053836965931 -0.904641667866 -0.046020075642 -0.904805752050 -0.042332369450 -0.043388785605 0.051582971958
0.002463343000 0.055673299452 0.032330450274 -0.688069671678 0.583175492488 -0.687168201909 0.584262489175 0.052012719452 0.035298683187
0.002951124000 0.045627628101 -0.057796134784 -0.100343570141 0.881578222323 -0.099752947879 0.882979205468 0.046447253161 -0.046823966194
0.003438905000 -0.037200524014 -0.060722721602 0.513820347919 0.705115891882 0.517310873864 0.705346753841 -0.025617899611 -0.049671516893
0.003926686000 -0.052078962247 0.011110749598 0.848811405836 0.172374950379 0.850457395238 0.169713797465 -0.035669431461 0.012711096726
0.004414467000 0.004809111507 0.032616750904 0.735871512839 -0.448592728485 0.734742176128 -0.450267084497 0.015182639541 0.026477788456
0.004902248000 0.027382244564 -0.011177421843 0.230677251096 -0.820401408953 0.229572162852 -0.821182419327 0.031069499002 -0.014204807455
0.005390029000 -0.007286562487 -0.032498818152 -0.380166180861 -0.751070005023 -0.382138749977 -0.751123508909 -0.001558416677 -0.029994047355
0.005877810000 -0.026162407620 -0.004928599597 -0.782420419747 -0.295110141999 -0.783168762634 -0.293900703013 -0.015134938149 -0.004245571372
0.006365591000 -0.004964118550 0.009782481832 -0.770778948250 0.312518003592 -0.770655282279 0.313377003581 0.004531867696 0.004732195566
0.006853372000 0.004678337366 -0.007577454117 -0.350714995121 0.745542243050 -0.350437977002 0.746348138822 0.008890967111 -0.011943275737
0.007341153000 -0.009508438762 -0.013478325040 0.243285363629 0.779213495562 0.244348133035 0.779691393032 -0.005024535443 -0.013131204203
0.007828934000 -0.014160143212 -0.001993760725 0.702261641432 0.407505272566 0.703089419976 0.406707718296 -0.005204826526 -0.001733256615
0.008316715000 -0.004381996041 0.002258835142 0.788293877046 -0.175732955320 0.788204440155 -0.176747066492 0.005054510510 -0.002433239009
0.008804496000 -0.000890440292 -0.006812031025 0.456442115299 -0.658688814600 0.455996784706 -0.659558068226 0.004453063946 -0.013273994777
0.009292277000 -0.010550265028 -0.010511157159 -0.107654822585 -0.787504856553 -0.109158125747 -0.788075417487 -0.007471472575 -0.014018383505
0.009780058000 -0.014600938169 -0.000246810927 -0.607865040384 -0.505600637433 -0.609013953048 -0.504659751664 -0.010319504884 -0.002198636477
0.010267839000 -0.004430159184 0.004721686525 -0.786138609989 0.039388638211 -0.786361569781 0.041016368509 -0.000095254861 0.001425782747
0.010755620000 0.001653138131 -0.004907204008 -0.547597850369 0.558221516120 -0.546937374491 0.559518293834 0.003797778671 -0.007311612217
0.011243401000 -0.006803369649 -0.012658257545 -0.025928530818 0.775582721939 -0.024720953734 0.776407365873 -0.003996144138 -0.011362479228
0.011731182000 -0.014725178999 -0.005916894564 0.501789121746 0.586965279150 0.503289795242 0.586070298862 -0.008144256183 -0.004109795224
0.012218963000 -0.009248700176 0.000859584227 0.763768734950 0.092190730667 0.764029428836 0.090750532346 -0.001458511843 -0.001151719219
0.012706744000 -0.003740305246 -0.005405297540 0.620669715204 -0.446884104686 0.620161391978 -0.448193657771 0.000510932552 -0.008391252045
0.013194525000 -0.011307292811 -0.012527799929 0.154796460900 -0.743459681881 0.153230987320 -0.744565741595 -0.008155908287 -0.010557005453
0.013682306000 -0.021398762931 -0.005183714187 -0.385138339037 -0.650072933111 -0.387291359435 -0.649286312218 -0.012230873345 -0.000109775114
0.014170087000 -0.017196365363 0.006315590269 -0.720674448969 -0.217869778406 -0.721511759260 -0.215469040408 -0.001162511549 0.005990194100
0.014657869000 -0.007053201233 0.005168425820 -0.674524523367 0.325932628798 -0.673701890983 0.328124903380 0.007496513507 -0.004170289689
0.015145650000 -0.007321953526 -0.002804342446 -0.275360699804 0.691309255461 -0.273359371615 0.693006256595 -0.000541921039 -0.015233797258
0.015633431000 -0.014570413639 -0.000770646662 0.261418505762 0.692612275422 0.264197081486 0.692202472113 -0.013197124134 -0.009875352439
0.016121212000 -0.011506611562 0.007579509082 0.658691017436 0.332955769874 0.659799878621 0.330362421313 -0.010417132849 0.002207183099
0.016608993000 -0.001601849151 0.005529664657 0.707116872975 -0.199629362362 0.706528813900 -0.202240937516 0.000115409058 0.001491965060
0.017096774000 -0.000902624526 -0.005010706177 0.383832345037 -0.621086862216 0.382105022290 -0.622866931655 0.000613878181 -0.007604721779
0.017584555000 -0.010377104175 -0.007441069252 -0.134496071420 -0.713981657095 -0.137300456675 -0.713769449338 -0.007574251704 -0.008142430645
0.018072336000 -0.012911388168 0.000183726637 -0.579417887501 -0.434408520776 -0.581078413507 -0.432208256018 -0.007428655416 -0.000990151104
0.018560117000 -0.006422539275 0.001832586765 -0.717856649605 0.071712618868 -0.717518463790 0.074588939854 -0.000464033969 -0.001942610298
0.019047898000 -0.005078312578 -0.005317129180 -0.478126994427 0.534758793006 -0.476397246844 0.536879314327 -0.001410263683 -0.009698123230
0.019535679000 -0.013451753216 -0.007152189475 0.007258991699 0.713699763399 0.010377289561 0.713831925537 -0.010788653398 -0.009633620482
0.020023460000 -0.016427968467 0.001365276408 0.485602068047 0.520131513409 0.487758333533 0.517747108889 -0.011970556284 -0.000127748533
0.020511241000 -0.008766205483 0.005438813707 0.707116582020 0.054480358338 0.707061036289 0.051592879833 -0.003352501724 0.002015669212
0.020999022000 -0.004008428349 -0.001574896323 0.555261397488 -0.435114526946 0.553714541190 -0.437449784378 -0.000380213445 -0.006133532079
0.021486803000 -0.011034105182 -0.006619659892 0.116271691896 -0.692115502396 0.113240351903 -0.692814732766 -0.008943072372 -0.009876746356
0.021974584000 -0.016529687394 0.000453766019 -0.379767390854 -0.587661900723 -0.382586688237 -0.585532437904 -0.013599887741 -0.001475506829
0.022462365000 -0.010086173703 0.006690956027 -0.675077828515 -0.175812298332 -0.675626087963 -0.172409148225 -0.006490335127 0.004013574299
0.022950146000 -0.002697014022 0.000923586042 -0.613504796391 0.324908361737 -0.612043076430 0.327852434389 -0.000401807638 -0.001882002893
0.023437927000 -0.007687192634 -0.007223301337 -0.232819263938 0.650232268048 -0.229620009097 0.651410418419 -0.005946083591 -0.007927059192
0.023925708000 -0.016285772792 -0.003204707457 0.265643464335 0.635010341674 0.268748000348 0.633401397868 -0.012224230801 -0.002254454269
0.024413489000 -0.013580628609 0.005301808677 0.623096699550 0.288002393874 0.624215848496 0.284694302724 -0.007094308065 0.004425634709
0.024901270000 -0.005032104896 0.003742252961 0.651129024179 -0.207714856463 0.650157791476 -0.210713500102 0.000343743379 0.000244118422
0.025389051000 -0.005271270772 -0.004007581925 0.335263188247 -0.592181390864 0.333970223179 -0.592794072209 -0.002191128439 -0.006738304353
0.025876832000 -0.014224935305 -0.004311590654 -0.151054385219 -0.661333173425 -0.152359567266 -0.660296743638 -0.010922501926 -0.004757850935
0.026364613000 -0.015412085609 0.003961852999 -0.556450347293 -0.385018557908 -0.556957456121 -0.383051358495 -0.009384833720 0.003488193784
0.026852394000 -0.007639843190 0.005993515061 -0.667833660606 0.091674585196 -0.667126607134 0.093312633211 -0.000707357114 0.002617610770
0.027340175000 -0.005275793279 -0.001469528983 -0.429165885028 0.515417501315 -0.427696895925 0.516205666569 -0.000714972283 -0.006640942792
0.027827956000 -0.012875335502 -0.003674217786 0.029804706238 0.667697587130 0.031795729038 0.666777415274 -0.010386708943 -0.007655289681
0.028315738000 -0.015526041895 0.003742220032 0.471300561703 0.471633572383 0.472183935275 0.469392358125 -0.012468859771 0.001219964830
0.028803519000 -0.008069727631 0.007342850837 0.663744429082 0.029691235804 0.663097606513 0.027587706388 -0.004228195201 0.004206263380
0.029291300000 -0.003503414209 0.000153772512 0.507962483440 -0.423273954389 0.506186461304 -0.424629876994 -0.000554800544 -0.003687908189
0.029779081000 -0.010338747875 -0.004670739214 0.090491915232 -0.652251158660 0.087529035889 -0.652013940109 -0.008492497708 -0.007714434418
0.030266862000 -0.015355903862 0.001549704008 -0.371942823378 -0.541404517126 -0.374189122282 -0.538809582881 -0.012885891934 -0.000587915332
0.030754643000 -0.009520596523 0.007287072195 -0.637799210614 -0.147688984950 -0.637956527734 -0.144394074736 -0.006460875516 0.004763203505
0.031242424000 -0.002668834582 0.002180511364 -0.567518753418 0.320491316472 -0.565826762943 0.322849869351 -0.000559985074 -0.000575405433
0.031730205000 -0.007142773857 -0.005213269509 -0.202829192529 0.616699730637 -0.199549981417 0.617296675126 -0.005628713731 -0.006778540730
0.032217986000 -0.014356811200 -0.001993595538 0.265352080360 0.590704716033 0.268238750914 0.588780277176 -0.011418133957 -0.002482616200
0.032705767000 -0.012045263389 0.005036648382 0.593109358486 0.255534684598 0.593818234789 0.252456909162 -0.007408715912 0.003452892702
0.033193548000 -0.004805869649 0.003266382163 0.607375016950 -0.211107655780 0.606232257040 -0.213573634926 -0.000817735127 -0.000176414860
0.033681329000 -0.006564847734 -0.004038838973 0.304768692312 -0.563125219391 0.302377446438 -0.564050549979 -0.004387126981 -0.007496138794
0.034169110000 -0.013955199752 -0.002861556835 -0.154431347060 -0.619626410830 -0.156950907826 -0.618568152679 -0.011948406104 -0.005135747324
0.034656891000 -0.013409157030 0.004611192329 -0.530954942110 -0.352060971288 -0.532108203430 -0.349677950031 -0.010700348840 0.002657704206
0.035144672000 -0.005461671375 0.004683333585 -0.626951958013 0.098565293043 -0.626342894397 0.100590813876 -0.003195448648 0.002504608109
0.035632453000 -0.004888477446 -0.003745300766 -0.395053694193 0.493303432688 -0.393173536437 0.494522845108 -0.003547635867 -0.004714340209
0.036120234000 -0.013249273506 -0.005348708139 0.040705750297 0.628875014217 0.043160531077 0.628317308663 -0.010771156797 -0.004574787120
0.036608015000 -0.016228133743 0.002350207081 0.453312575844 0.435698323964 0.454810109479 0.433683963605 -0.011208323144 0.003105100909
0.037095796000 -0.009072491779 0.006166562813 0.626501119399 0.015361445031 0.626226886126 0.013262293279 -0.003277606285 0.004642641895
0.037583577000 -0.005271436836 -0.000575994734 0.471036155474 -0.409227598843 0.469517600511 -0.410733489177 -0.001273566275 -0.003395927966
0.038071358000 -0.011940591049 -0.004482220028 0.072084236357 -0.617772359937 0.069519653047 -0.617814432836 -0.009115573211 -0.006488329528
0.038559139000 -0.016511122517 0.001858841048 -0.362644452885 -0.503631347635 -0.364559892242 -0.502049688298 -0.013126068774 0.001028299415
0.039046920000 -0.010454025231 0.007529604386 -0.605695285317 -0.126671640884 -0.605918008661 -0.124109177388 -0.006274338415 0.006180386996
0.039534701000 -0.004088625125 0.001941500274 -0.530458800516 0.313519203173 -0.529084213380 0.315583461250 -0.000855416085 0.000183246302
0.040022482000 -0.009111335968 -0.004697073340 -0.180098125701 0.587204887019 -0.177413672774 0.587822798654 -0.006490288357 -0.005631782815
0.040510263000 -0.016018786910 -0.000940815054 0.262156885173 0.553802192435 0.264854223336 0.552380155834 -0.012371833101 -0.000517930287
0.040998044000 -0.012862840379 0.006373605880 0.565674720776 0.231407109669 0.566471987192 0.228626994977 -0.007740422220 0.005974629407
0.041485826000 -0.005349693042 0.003698662399 0.571485864316 -0.210027443686 0.570274042715 -0.212316752842 -0.000832540649 0.002067584651
0.041973607000 -0.007736019641 -0.004116806528 0.279825570210 -0.538248499020 0.277180787737 -0.539395614358 -0.004374632690 -0.005022705842
0.042461388000 -0.015874501644 -0.003353566306 -0.155537456592 -0.584703811404 -0.158618439387 -0.584007757183 -0.011104002612 -0.001957005530
0.042949169000 -0.016510433032 0.004760184747 -0.508107374679 -0.326152501266 -0.509519804057 -0.323475110699 -0.007908424224 0.005338976149
0.043436950000 -0.009520133598 0.006190165594 -0.592950364011 0.101563372319 -0.592236986196 0.104191955336 0.000368630154 0.002441156943
0.043924731000 -0.008771001431 0.000184543599 -0.368262249020 0.472845209321 -0.365838012317 0.474458027316 -0.001872725277 -0.007194696082
0.044412512000 -0.014852629314 0.000003930022 0.046285251886 0.595931961268 0.049334314008 0.595723857019 -0.012037242802 -0.006786112833
0.044900293000 -0.015361633682 0.007470505854 0.434867370484 0.408401626390 0.436950558264 0.405793094799 -0.013604274322 0.003285410421
0.045388074000 -0.007055708533 0.009694147380 0.594613265103 0.008177599357 0.594292437439 0.005174129174 -0.004538918622 0.006619686417
0.045875855000 -0.003396413854 0.001948796114 0.443245099935 -0.393241750057 0.441042607755 -0.395309880783 -0.000687757350 -0.001338143374
0.046363636000 -0.009342179539 -0.002559749581 0.062703649028 -0.587549105808 0.059294997126 -0.587833159544 -0.007292606499 -0.005598682813
0.046851417000 -0.013653414221 0.002436627109 -0.348873619291 -0.475483761299 -0.351438700882 -0.473409542658 -0.011584497140 0.000257191095
0.047339198000 -0.008464407601 0.006487483386 -0.576642127961 -0.115543402285 -0.576887271409 -0.112265830227 -0.006252084381 0.004491371570
0.047826979000 -0.004361515386 0.000568041934 -0.501917375369 0.302259898934 -0.500052591014 0.304708834584 -0.002563148966 -0.000890189829
0.048314760000 -0.010108894660 -0.004871288520 -0.166910929442 0.559835484669 -0.163595940895 0.560659819995 -0.008009240814 -0.004688267963
0.048802541000 -0.017062834682 0.000051684327 0.253218930898 0.525053729341 0.256314488154 0.523506895578 -0.012442177614 0.001439427070
0.049290322000 -0.013602057852 0.008140360510 0.539590188073 0.216486224159 0.540570738114 0.213226792380 -0.006174021251 0.007548995403
0.049778103000 -0.005826466384 0.006225600834 0.542721158917 -0.202856407457 0.541164180665 -0.206011314250 0.001274933463 0.002290592506
0.050265884000 -0.006319658093 -0.000365916730 0.263872094013 -0.513839066398 0.260305749378 -0.515471411283 -0.001788384771 -0.005756746559
0.050753665000 -0.011892036276 -0.000349509239 -0.150794883415 -0.556304746796 -0.154619040851 -0.555222537486 -0.009052201490 -0.004255033119
0.051241446000 -0.011391494679 0.004958743598 -0.485430318233 -0.308495956168 -0.486980937617 -0.305169663686 -0.008058268087 0.002068189917
0.051729227000 -0.005876944667 0.003886105856 -0.564404870527 0.099096268927 -0.563542091837 0.102523656524 -0.002214385980 0.000576978046
0.052217008000 -0.006750865780 -0.002153527586 -0.349273936070 0.451838562822 -0.346296866452 0.454108421907 -0.003645224186 -0.005756163817
0.052704789000 -0.013154764380 -0.002398498730 0.046000990929 0.568031135343 0.049702573937 0.567864206236 -0.010290066138 -0.004680088282
0.053192570000 -0.014328609331 0.003982656085 0.415998596098 0.387922411161 0.418367135833 0.385098095514 -0.009789219539 0.002138163521
0.053680351000 -0.008525330084 0.005696632888 0.566944986475 0.005950089829 0.566618469812 0.002460729912 -0.002951680577 0.001920381600
0.054168132000 -0.007138427230 0.000420854960 0.421712472408 -0.376144555456 0.419095992590 -0.378881479723 -0.002428293732 -0.005641218461
0.054655913000 -0.012242563020 -0.000933175021 0.058477054847 -0.560624684920 0.054485456469 -0.561154829331 -0.010151248668 -0.007473074451
0.055143695000 -0.013800207287 0.004919651443 -0.333989062779 -0.452775500904 -0.336934147994 -0.450371921771 -0.013509023286 -0.000301664800
0.055631476000 -0.007404165471 0.007398421278 -0.550316962005 -0.108975778865 -0.550768564833 -0.105185302856 -0.007795040344 0.003730881835
0.056119257000 -0.004026000021 0.000983080719 -0.478530171444 0.289412860068 -0.476349782438 0.292563438373 -0.004150545631 -0.001252556435
0.056607038000 -0.009475118802 -0.003564394455 -0.158705858706 0.534790940685 -0.154713315227 0.535938684996 -0.008874953082 -0.004572995863
0.057094819000 -0.014645394694 0.001137469319 0.242411919754 0.501190162365 0.245979009526 0.499274444492 -0.012454501369 0.000583334364
0.057582600000 -0.010525903985 0.006648097083 0.515587264063 0.206248481977 0.516746450669 0.202338922262 -0.007713695736 0.004935991582
0.058070381000 -0.005138410817 0.002988515339 0.518272862694 -0.194248475207 0.516500823653 -0.198134112092 -0.003004395071 0.000524197224
0.058558162000 -0.008029679337 -0.002779756137 0.251903646966 -0.491184608617 0.247891709583 -0.493141587413 -0.006720202675 -0.004305610966
0.059045943000 -0.014040645918 -0.000430838506 -0.144044499969 -0.531765776379 -0.148458844628 -0.530479677588 -0.011747942390 -0.000720013231
0.059533724000 -0.012298957406 0.005907613913 -0.463748919282 -0.295108566549 -0.465674086215 -0.291156977201 -0.008663177194 0.004853596521
0.060021505000 -0.006188166108 0.004704540516 -0.539809795817 0.093947607460 -0.538529934116 0.098327413817 -0.002826876349 0.002155095768
0.060509286000 -0.006345362171 -0.001223215485 -0.334857562257 0.431401599780 -0.331116879779 0.434231736187 -0.004455207837 -0.003713164343
0.060997067000 -0.011862517885 -0.001396866571 0.042690966408 0.543287722194 0.047406231977 0.542730091583 -0.010128307843 -0.002696685775
0.061484848000 -0.012029922273 0.004034233720 0.396859656691 0.371360776745 0.399769194492 0.367664185949 -0.009586622163 0.002673093281
0.061972629000 -0.006648776936 0.004236941973 0.541850083677 0.005703814387 0.541577794908 0.001404005966 -0.004559356452 0.002283596105
0.062460410000 -0.006017652354 -0.001772333492 0.403065242266 -0.359850489047 0.400277247976 -0.363031801699 -0.005136972073 -0.002704482515
0.062948191000 -0.012453485772 -0.003129638753 0.055808656215 -0.536496287048 0.051688812151 -0.536927339207 -0.010827095974 -0.002080151688
0.063435972000 -0.014964355866 0.003267392135 -0.319333812889 -0.433537992189 -0.322582326171 -0.430584776172 -0.011057381562 0.004158481688
0.063923753000 -0.009372872716 0.006602458905 -0.526778930285 -0.104748107046 -0.527046678054 -0.100378132883 -0.004823533263 0.005417431300
0.064411534000 -0.005178620807 0.001961583151 -0.458634033574 0.276396582030 -0.456097400031 0.280011239873 -0.002351691673 -0.000166816030
0.064899315000 -0.008802471969 -0.002326074425 -0.153055577560 0.511821958996 -0.148626575441 0.513007614773 -0.006985092688 -0.002888682780
0.065387096000 -0.012513889911 0.000861987015 0.231073888704 0.480523055261 0.235140778077 0.478170577165 -0.009517549550 0.001188479149
0.065874877000 -0.009295493499 0.004047644280 0.493345504560 0.198885672083 0.494666409338 0.194094662207 -0.005724576772 0.003510326944
0.066362658000 -0.005313844639 0.000409000649 0.496954379385 -0.184740282082 0.495011542612 -0.189353312526 -0.003301609122 0.000057246814
0.066850439000 -0.008651846382 -0.004770445752 0.242814130771 -0.469837264193 0.238211821344 -0.472192253135 -0.006811086789 -0.001896100249
0.067338220000 -0.014651132840 -0.002785583858 -0.136439102201 -0.509979774887 -0.141639207452 -0.508314318004 -0.008740630621 0.002185978145
0.067826001000 -0.014564770846 0.002645403441 -0.443579981639 -0.283879296795 -0.445903957752 -0.279241528742 -0.003875361340 0.004519206910
0.068313782000 -0.010706387011 0.002902706600 -0.517480554022 0.088810482316 -0.516223538389 0.093768661151 0.000210327717 -0.000864164043
0.068801564000 -0.011030835205 0.000227588002 -0.322065784256 0.412857059564 -0.318107528495 0.415811843844 -0.004234909371 -0.006605923799
