# GHZ S RI R 50.000000000000
0.001000000000 0.042493366730 -0.036964420414 -0.547536898045 0.098769649135 -0.549454030764 0.106277139634 0.044303692645 -0.039376443871
0.001487781000 0.037127589985 -0.113650981293 0.043476656592 0.514849856172 0.050240736210 0.511743577917 0.038724670526 -0.112785755996
0.001975562000 0.002891501060 -0.033976890742 0.481414161596 0.008597069482 0.479690252051 0.002068830556 0.005254463831 -0.036228914191
0.002463343000 0.029275873720 -0.069192410879 0.053669164514 -0.454029241381 0.047412130704 -0.453743201648 0.030756977686 -0.070147538962
0.002951124000 -0.008059483192 -0.035910485575 -0.425197928643 -0.096248376739 -0.425998253386 -0.090067798656 -0.007329932274 -0.038467209209
0.003438905000 0.019724543045 -0.045444326247 -0.135516299131 0.397219237051 -0.129834456294 0.398909819403 0.020946854165 -0.045459859589
0.003926686000 -0.010561310769 -0.035421432917 0.367926886635 0.171505164040 0.370275070720 0.165908532837 -0.008377943817 -0.037241535479
0.004414467000 0.011283655685 -0.029307812717 0.204738681901 -0.337860664443 0.199419686267 -0.340633805768 0.012234886777 -0.030925617178
0.004902248000 -0.006505389634 -0.031808184008 -0.305595047406 -0.233405250754 -0.309078149160 -0.228443754377 -0.006987793689 -0.034878149076
0.005390029000 0.006850733870 -0.021946250025 -0.259141386407 0.272378301141 -0.254600750006 0.276364676545 0.005479978180 -0.022118478155
0.005877810000 -0.003798216277 -0.029029413239 0.237476749255 0.280675132208 0.241952596923 0.276537053757 -0.002023321115 -0.030457140380
0.006365591000 0.003020931958 -0.020251111536 0.300304037094 -0.201807549950 0.296580600788 -0.206653043891 0.001593088908 -0.019437480430
0.006853372000 -0.002312345141 -0.025869093471 -0.165600974167 -0.314004671306 -0.170929281121 -0.310846735126 -0.000943372515 -0.026411923576
0.007341153000 -0.001195614938 -0.019614709540 -0.324422228466 0.128675168975 -0.321796401306 0.134296702339 -0.000780491203 -0.020996366203
0.007828934000 -0.004773776267 -0.022210727328 0.091834796446 0.331579410255 0.097809456770 0.329563133239 -0.004790490692 -0.023154978067
0.008316715000 -0.003748016497 -0.015059992750 0.334904567609 -0.055094263733 0.333340859628 -0.061383389879 -0.003625777023 -0.016304032964
0.008804496000 -0.004153185758 -0.018830174858 -0.018731750845 -0.334076868237 -0.025247558941 -0.333251495670 -0.003153711013 -0.020198334884
0.009292277000 -0.005144964959 -0.012160926015 -0.329710922903 -0.017094896204 -0.329567100892 -0.010299982403 -0.004832784602 -0.014755137055
0.009780058000 -0.002569430681 -0.015268375161 -0.051591295517 0.321553146579 -0.044820486214 0.322126623480 -0.002772652487 -0.017848701678
0.010267839000 -0.003614909655 -0.011232241071 0.309455371225 0.084936989415 0.310682437027 0.078159148371 -0.005022043321 -0.013564310886
0.010755620000 -0.001158916870 -0.014336648098 0.116373137301 -0.295902693145 0.109755532242 -0.297896651110 -0.001912991730 -0.015456419605
0.011243401000 -0.007323964073 -0.012643325724 -0.277320192736 -0.146186287999 -0.279944056761 -0.139833757579 -0.005801419497 -0.013405410543
0.011731182000 -0.001357456182 -0.012434334115 -0.172372442086 0.258444461709 -0.166350953517 0.261747340974 -0.002670360010 -0.015045497036
0.012218963000 -0.006295136510 -0.013888887289 0.235189067369 0.196985150952 0.239069931968 0.191243970316 -0.006642251990 -0.014383568736
0.012706744000 -0.003975450252 -0.011198879327 0.218218683597 -0.211089456952 0.212856886783 -0.215699486032 -0.004559668098 -0.012675666990
0.013194525000 -0.007592676395 -0.010261102985 -0.183896252263 -0.236602263801 -0.189077157446 -0.231689205451 -0.007046174268 -0.013247662093
0.013682306000 -0.002818590180 -0.008262476373 -0.252129621100 0.155992722562 -0.247801938758 0.161747518354 -0.003959996040 -0.010745718717
0.014170087000 -0.007242576426 -0.011862207754 0.125305823528 0.263940726863 0.131507365428 0.260252024770 -0.007781787809 -0.013503514821
0.014657869000 -0.003419171559 -0.006432394891 0.274324741830 -0.095990448797 0.271319896701 -0.102583502733 -0.004334717782 -0.009076299902
0.015145650000 -0.004405059685 -0.010149388944 -0.065580810543 -0.279683321533 -0.072430436436 -0.277438840855 -0.004936463888 -0.013198220049
0.015633431000 -0.003817179972 -0.006600838045 -0.282056317708 0.034793038026 -0.280525888481 0.041949305846 -0.005863434209 -0.009910300846
0.016121212000 -0.003554792185 -0.010089784625 0.004160945504 0.281030076826 0.011303132839 0.280309950297 -0.005107270145 -0.012573468369
0.016608993000 -0.004681669328 -0.006682070423 0.276957934452 0.026272888969 0.276939703298 0.018976912083 -0.006692098339 -0.009774545208
0.017096774000 -0.003576021925 -0.008668115560 0.055312413837 -0.269249180015 0.048205469589 -0.270053705497 -0.005043074153 -0.012314663666
0.017584555000 -0.003260517010 -0.008114366371 -0.259369928924 -0.083988697241 -0.260876937892 -0.076997498150 -0.008844334953 -0.010295310998
0.018072336000 -0.003341278943 -0.010595458856 -0.109596357994 0.245663466207 -0.102999248355 0.247943793624 -0.006209902629 -0.010708627130
0.018560117000 -0.007189962698 -0.006624413913 0.229708543172 0.134775681872 0.232571808540 0.128331706022 -0.008649372960 -0.008018032901
0.019047898000 -0.003251579527 -0.007014695897 0.156147811992 -0.211633773934 0.150163999595 -0.215188179002 -0.004922628858 -0.009056680243
0.019535679000 -0.003681303320 -0.006905691324 -0.190352653407 -0.176004959606 -0.194475218459 -0.170416015004 -0.007606573817 -0.010385970088
0.020023460000 -0.005348984292 -0.009809501025 -0.195180167405 0.168188216704 -0.190184902006 0.172949614914 -0.007729605143 -0.009798638065
0.020511241000 -0.007318873183 -0.006783043992 0.145759638557 0.209783952853 0.150966613732 0.205229036952 -0.008684501312 -0.008636549262
0.020999022000 -0.003406310129 -0.005563351094 0.221676069328 -0.121338972426 0.217766153367 -0.126966201890 -0.005994228437 -0.007105210918
0.021486803000 -0.005397538666 -0.008402339570 -0.095588107223 -0.230817910145 -0.101570288303 -0.227514275032 -0.007352274181 -0.009917414924
0.021974584000 -0.005334506852 -0.006441946037 -0.237140796599 0.069300878504 -0.234591994722 0.075653676031 -0.007448277573 -0.008458221340
0.022462365000 -0.006615041704 -0.006988830520 0.042699885201 0.240539880194 0.049166359145 0.238613611790 -0.009278626937 -0.009796806042
0.022950146000 -0.005034882019 -0.004470169011 0.241369516909 -0.016088435057 0.240199437674 -0.022703811405 -0.009386881484 -0.006335957792
0.023437927000 -0.005281714251 -0.007094800713 0.010229105894 -0.239075153952 0.003619367746 -0.238638583158 -0.008440537031 -0.007232203994
0.023925708000 -0.005586973682 -0.004291209861 -0.234246905885 -0.036046997297 -0.234562562172 -0.029416623326 -0.008656675243 -0.005010491081
0.024413489000 -0.003880473807 -0.006291490267 -0.060903638357 0.226308702387 -0.054522818823 0.227317385122 -0.006707257144 -0.006637858747
0.024901270000 -0.005361331813 -0.005791438480 0.216192933915 0.084668495891 0.217901757590 0.078425823840 -0.008265655871 -0.005476293484
0.025389051000 -0.004041162254 -0.006229862549 0.103920709112 -0.204807206158 0.098471817322 -0.206660891920 -0.005815481534 -0.005413597746
0.025876832000 -0.007291356829 -0.005489505504 -0.189832509870 -0.124535880232 -0.192308060987 -0.119245086226 -0.008029287011 -0.005708112457
0.026364613000 -0.003758061421 -0.003738477813 -0.144145219801 0.172505028267 -0.139219695068 0.175557346946 -0.004611668533 -0.005178205462
0.026852394000 -0.005741537646 -0.005838128349 0.154791877794 0.160639853208 0.158349303335 0.155981527511 -0.008035736554 -0.007980215061
0.027340175000 -0.004620227924 -0.005876600436 0.174775467675 -0.134818554754 0.170634932809 -0.138855399786 -0.007598791168 -0.006798369338
0.027827956000 -0.006882106654 -0.006025976342 -0.113534044123 -0.186315458100 -0.117995691367 -0.182560905892 -0.010537251887 -0.007570401380
0.028315738000 -0.005487033705 -0.005411611723 -0.195318580642 0.091216120010 -0.192160267811 0.096075050651 -0.010193955473 -0.003896470414
0.028803519000 -0.008058619284 -0.006058508219 0.067890516001 0.201861171137 0.073112938997 0.199199036152 -0.008949385928 -0.003446223254
0.029291300000 -0.006510818783 -0.003573612416 0.205966409638 -0.044761287674 0.203964635728 -0.050266846399 -0.006513654711 -0.002173968050
0.029779081000 -0.007921612692 -0.006061633284 -0.021332431555 -0.207026488458 -0.027119700513 -0.205603663263 -0.005565361816 -0.005362985111
0.030266862000 -0.008664617653 -0.001439160060 -0.205263665716 -0.002054313266 -0.204597276131 0.003846367971 -0.006409870117 -0.005634784435
0.030754643000 -0.005466198385 -0.002869857050 -0.025154925397 0.201124896202 -0.019313060651 0.201100570325 -0.008176715219 -0.006009544327
0.031242424000 -0.006127255049 -0.000964602068 0.196380471321 0.047363889687 0.197100016134 0.041582012259 -0.005839442478 -0.004387342881
0.031730205000 -0.003348505312 -0.004265872182 0.067636764676 -0.188125568212 0.061994505883 -0.189387575389 -0.005420125011 -0.006720881173
0.032217986000 -0.006689121581 -0.004348685143 -0.177797991019 -0.086904755900 -0.179697015866 -0.081474129641 -0.006722008298 -0.006612993578
0.032705767000 -0.006385397209 -0.003643646572 -0.104568603646 0.165332572431 -0.099473230632 0.167689944829 -0.006392423132 -0.008439292111
0.033193548000 -0.006949518974 -0.001468221321 0.150783356199 0.120663692517 0.153618658331 0.115977941527 -0.010013234023 -0.007994589169
0.033681329000 -0.003275656174 -0.003055321499 0.135790250751 -0.134620743745 0.131582891063 -0.137867451416 -0.009214475300 -0.005288515545
0.034169110000 -0.006171579560 -0.003400593292 -0.117428000093 -0.148089398589 -0.121139095485 -0.144288564829 -0.009910951387 -0.005578540462
0.034656891000 -0.003772526621 -0.004076781873 -0.159060757020 0.098798496113 -0.155815708425 0.102800821027 -0.008032668610 -0.001801541674
0.035144672000 -0.007777976496 -0.004833234694 0.080257917002 0.167289285768 0.084593654510 0.164501589665 -0.006199125773 -0.004986278714
0.035632453000 -0.006450647069 -0.001673687627 0.173170047101 -0.060788674938 0.170899082334 -0.065342554743 -0.005713811801 -0.004869128620
0.036120234000 -0.005627852415 -0.003438513401 -0.040746236850 -0.177217347981 -0.045464054790 -0.175468777672 -0.006439178975 -0.007624749248
0.036608015000 -0.006227466505 -0.003048771785 -0.178705352697 0.020897487667 -0.177538502660 0.025663240987 -0.008039099755 -0.006596508473
0.037095796000 -0.006861595332 -0.002605712709 0.000434736140 0.177994128900 0.005279181407 0.177340823346 -0.009554957938 -0.007425430710
0.037583577000 -0.006259034885 -0.002298936334 0.175298649753 0.018948817064 0.175264220994 0.014141157052 -0.010397605485 -0.003873102685
0.038071358000 -0.007555017555 -0.003333872367 0.037807764830 -0.169978842624 0.033023770440 -0.170473159412 -0.008653899777 -0.003599131892
0.038559139000 -0.007500908563 0.000021286392 -0.162558948557 -0.055925294712 -0.163599948035 -0.051289072259 -0.007088865555 -0.002821873535
0.039046920000 -0.005718124851 -0.001792277434 -0.073666423001 0.153266238043 -0.069211001839 0.154756713941 -0.006677204180 -0.005001384275
0.039534701000 -0.006556426168 -0.001178511453 0.142913826132 0.090252051242 0.144975792385 0.086016581805 -0.006320091511 -0.005274927407
0.040022482000 -0.005516871123 -0.000827927346 0.104392005484 -0.130925614808 0.100401869455 -0.133412512012 -0.006404877837 -0.007752583057
0.040510263000 -0.005766282283 -0.001067765370 -0.116957092185 -0.116773804306 -0.119864490847 -0.113139850509 -0.010275056803 -0.007964277962
0.040998044000 -0.005703799845 -0.001444982833 -0.127325581260 0.101632988477 -0.124068924542 0.104854108055 -0.010069602177 -0.005987111262
0.041485826000 -0.006124950431 0.001322404680 0.085078131743 0.135924534868 0.088632638193 0.133117378224 -0.010735235961 -0.006443368634
0.041973607000 -0.002256048178 -0.002177863491 0.144698119977 -0.068389764650 0.142337265933 -0.072229534255 -0.012096438743 -0.004423463025
0.042461388000 -0.005645980879 -0.002810535784 -0.052056178467 -0.150161527475 -0.056165764938 -0.148260883553 -0.011553620477 -0.003717881587
0.042949169000 -0.004187478374 -0.001872159080 -0.153552629520 0.034464351686 -0.152126852809 0.038661276847 -0.010016364533 -0.002751175700
0.043436950000 -0.006026625623 -0.003466351119 0.016579983081 0.155226936897 0.020938791899 0.154312933997 -0.010048567901 -0.003781787810
0.043924731000 -0.005808427511 -0.001733970873 0.154484331031 0.001074753330 0.154069225842 -0.003291086460 -0.009972447929 -0.003019052677
0.044412512000 -0.005963600743 -0.002909093508 0.018338821193 -0.151626379331 0.013943483081 -0.151719826883 -0.010480678765 -0.003776491574
0.044900293000 -0.006278814922 -0.002287203761 -0.146882258919 -0.034962160952 -0.147476966386 -0.030680243595 -0.010684172697 -0.002002561741
0.045388074000 -0.008169730625 -0.003129507748 -0.050878386407 0.140325661580 -0.046682852813 0.141399840041 -0.009913518081 -0.002504266796
0.045875855000 -0.008577813362 0.001329941384 0.132276470677 0.066105251397 0.133807621302 0.062138925094 -0.010335425316 -0.001243092712
0.046363636000 -0.004312236887 0.001075187563 0.080210670954 -0.122711870526 0.076438080005 -0.124672961991 -0.008539660748 -0.001607070504
0.046851417000 -0.003956439136 -0.000919060854 -0.111704322286 -0.093001099301 -0.114084082423 -0.089541697201 -0.008929359920 -0.001570777113
0.047339198000 -0.004031327552 -0.003017580423 -0.104105447490 0.099223606589 -0.100931853326 0.101930887247 -0.007744309474 -0.002395372183
0.047826979000 -0.006424843117 -0.003207947178 0.085654259020 0.113442092716 0.088727787690 0.110651070672 -0.009093636058 -0.002479062341
0.048314760000 -0.006518755777 -0.002865005109 0.120585044846 -0.071036958031 0.118152827642 -0.074362638623 -0.008536243835 -0.001648770615
0.048802541000 -0.008801917458 -0.003547287766 -0.055976640000 -0.126687105736 -0.059564911133 -0.124712551218 -0.007428462563 -0.002030706506
0.049290322000 -0.010059672332 -0.000316657491 -0.130385368903 0.041057955430 -0.128789752472 0.044796406744 -0.006752402045 -0.002533627288
0.049778103000 -0.007669967777 0.002762788126 0.025087443036 0.132567894769 0.028958315122 0.131485330016 -0.006548462902 -0.004032507390
0.050265884000 -0.005948500323 0.000558254995 0.134009320512 -0.009916882678 0.133346499953 -0.013864915116 -0.007507581428 -0.004651647613
0.050753665000 -0.007258752244 0.001003480106 0.004920833217 -0.132885240728 0.000934505470 -0.132696696878 -0.008712187895 -0.005461105025
0.051241446000 -0.004402047464 0.002944501606 -0.129574115855 -0.020003782358 -0.129803764228 -0.016120435628 -0.009653330630 -0.005332435915
0.051729227000 -0.005184352427 -0.000935979673 -0.035435236740 0.125837322404 -0.031583428891 0.126580687598 -0.011878221412 -0.003976859878
0.052217008000 -0.005328404876 0.001632112461 0.120291882558 0.048816888676 0.121429875772 0.045112134165 -0.011358780843 -0.001372334746
0.052704789000 -0.003832883515 0.000477518688 0.061449241875 -0.112784597159 0.057927887795 -0.114344269159 -0.009831025800 -0.001082601312
0.053192570000 -0.003553075042 0.000690169812 -0.103824410973 -0.073037361261 -0.105739320850 -0.069779991684 -0.009217366274 -0.000163563422
0.053680351000 -0.002129678809 -0.001648688773 -0.083385716225 0.093505163526 -0.080379977812 0.095784769976 -0.007427684116 -0.000926619320
0.054168132000 -0.005093885645 -0.002507191684 0.082047401800 0.093062119153 0.084645126878 0.090403607417 -0.007493707032 -0.000380386882
0.054655913000 -0.004626206687 -0.002187023198 0.100960026850 -0.070619468052 0.098573515545 -0.073505502229 -0.005184930992 -0.001986037560
0.055143695000 -0.006454148719 -0.001975883722 -0.058104586626 -0.106949542723 -0.061183489219 -0.104958984280 -0.006232756470 -0.003627289311
0.055631476000 -0.005916111151 0.000414220654 -0.111104466858 0.044585843469 -0.109463700473 0.047845489222 -0.006817568307 -0.003616493473
0.056119257000 -0.003431515178 -0.001190536254 0.029623062439 0.114990546128 0.033031228573 0.113818963252 -0.005340671952 -0.003482544117
0.056607038000 -0.003936214367 -0.001149222982 0.117599921040 -0.016691837547 0.116766972021 -0.020223104483 -0.004617526747 -0.005864497958
0.057094819000 -0.002863046777 -0.002391996456 -0.003585120440 -0.117563066907 -0.007146337176 -0.117146401103 -0.007123410869 -0.009362992467
0.057582600000 -0.003436962089 -0.005335105376 -0.115950105625 -0.009686187454 -0.115917010767 -0.006152274810 -0.011286329401 -0.008850990043
0.058070381000 -0.007828300457 -0.005982565814 -0.022848128275 0.113149984574 -0.019323087197 0.113567641726 -0.014093452133 -0.005784068951
0.058558162000 -0.008986971556 -0.002451448655 0.108897908825 0.035372878975 0.109665630373 0.031959886870 -0.012309357396 -0.002089852043
0.059045943000 -0.007817649797 -0.001606725864 0.047399847663 -0.103074282460 0.044087437946 -0.104260602153 -0.010304042659 -0.002692625838
0.059533724000 -0.007136784330 -0.001087100383 -0.095809435076 -0.058573042944 -0.097323242537 -0.055448912176 -0.010158259855 -0.003192495208
0.060021505000 -0.006747543613 -0.001829986188 -0.068756308237 0.087228097916 -0.065832597366 0.089139316639 -0.010878659396 -0.003816093632
0.060509286000 -0.007406189991 -0.001975548123 0.077447315377 0.077940592141 0.079655380494 0.075297454691 -0.011101907711 -0.002374222956
0.060997067000 -0.007164413064 -0.000892662101 0.085943241416 -0.067573345362 0.083574485973 -0.070103506016 -0.010928024785 -0.002971630198
0.061484848000 -0.006608389546 -0.000832096395 -0.056923433915 -0.092004622464 -0.059628237819 -0.089984589104 -0.011227862948 -0.001630457587
0.061972629000 -0.005664554193 -0.001646721523 -0.096751776740 0.045776693095 -0.095098151033 0.048656625534 -0.009673602543 -0.001290828725
0.062460410000 -0.006756111312 -0.002647950084 0.034070187159 0.100279797055 0.037026656545 0.098988821255 -0.009631078140 -0.001915727644
0.062948191000 -0.007453173982 -0.002452873867 0.102423376155 -0.021957172661 0.101488566994 -0.025015331292 -0.009849295348 -0.002363498706
0.063435972000 -0.007983270586 -0.001773490768 -0.009587883289 -0.103147742868 -0.012679383055 -0.102599427469 -0.010463459709 -0.002283597237
0.063923753000 -0.007258431607 -0.001811846732 -0.102669981989 -0.002496496401 -0.102447618065 0.000666969176 -0.010723322269 -0.001887379242
0.064411534000 -0.008124015914 -0.002382008785 -0.014137036091 0.100548921461 -0.011027724658 0.100714120371 -0.010816783398 -0.001498416431
0.064899315000 -0.007695947038 -0.001176393097 0.096952765219 0.025776927336 0.097483007022 0.022700146523 -0.010887547649 -0.000560479248
0.065387096000 -0.007234768187 -0.003216300866 0.036914992859 -0.092865122171 0.033920006718 -0.093788420945 -0.008435397593 -0.000098454431
0.065874877000 -0.008904970167 -0.003375976677 -0.087290037771 -0.046878217833 -0.088523283070 -0.043967074533 -0.007830854405 -0.002249434748
0.066362658000 -0.010146681242 -0.003273117200 -0.056174956270 0.080488101670 -0.053455505927 0.082071930287 -0.009600838083 -0.003193099250
0.066850439000 -0.010994639669 -0.001747287383 0.072735666215 0.064428860322 0.074627361249 0.061866050779 -0.010387275641 -0.001928869933
0.067338220000 -0.010806908837 -0.001200583809 0.071605678185 -0.064198879440 0.069358107723 -0.066353202005 -0.010042716557 -0.001517675201
0.067826001000 -0.011196000504 -0.000280212435 -0.055012077663 -0.077701078200 -0.057330718785 -0.075733645097 -0.009796268393 -0.001166821167
0.068313782000 -0.011064421492 0.000337198902 -0.082797315978 0.045181121532 -0.081139336894 0.047688976311 -0.009260114743 -0.001692101309
0.068801564000 -0.011024604778 0.002123886853 0.034798932419 0.086697686318 0.037414123261 0.085351148613 -0.009429187538 -0.001794558538
