# GHZ S DB R 50.000000000000
0.000100000000 -17.186144466269 -8.479739822243 -4.435259297115 -19.465744778198 -5.391860812892 -29.366387617923 -14.948516774004 -16.978543228809
0.012099800000 -35.963135721708 -114.939361709454 -10.249897094519 60.386201662048 -10.260860158170 59.227928465105 -35.831277357468 -101.544862312801
0.024099600000 -42.310345374741 -153.663552337676 -12.545563029400 159.060166252932 -12.564540128603 157.639780517379 -42.682652172426 -126.351764129054
0.036099400000 -41.397030605962 -133.168065525477 -14.810498083409 -98.923051430819 -14.834895816403 -100.368003488979 -42.108796060499 -137.731463919645
0.048099200000 -41.348457953030 -179.597218592710 -17.028657979733 6.935930258670 -17.046981498705 5.421474188822 -41.667924907911 -149.502280820594
0.060099000000 -39.218367600199 -171.454187500184 -19.129812821418 115.788108035280 -19.146874089955 114.163675558534 -41.747447346239 -151.401852835517
0.072098800000 -37.777491465543 178.836898622770 -21.132759992941 -133.578083150219 -21.152742620592 -135.230511929978 -42.191831091359 -174.672753202970
0.084098600000 -38.706619608977 176.954643727356 -23.014375845104 -21.505913152136 -23.030641246806 -23.033641154200 -41.081737745295 178.116395836234
0.096098400000 -39.568620839833 -175.726197726885 -24.636842641083 92.545888101513 -24.651344572405 90.881101722431 -40.762035764977 -157.457722791085
0.108098200000 -41.212469365711 158.178637537564 -26.451376528210 -153.079296189987 -26.468417213870 -154.798869752262 -39.479796792323 167.753481454150
0.120098000000 -41.767081483697 126.508640030124 -27.991124863247 -37.461273914482 -28.017029402042 -39.123055472412 -38.575190408110 156.101357312995
0.132097800000 -40.242700439582 108.891207307480 -29.586085318038 78.688298676309 -29.607110910396 76.960152860779 -38.386078737830 176.969871853481
0.144097600000 -37.228662431633 137.129335094738 -30.890548252387 -166.280386921216 -30.895049122487 -168.015239060527 -39.224830921926 82.386404968562
0.156097400000 -39.622741268936 174.131253023017 -32.198328295572 -47.940126255947 -32.199763722615 -49.555150172990 -38.570945836041 172.243536249681
0.168097200000 -37.816947128545 119.477776180004 -33.628304940252 67.203526352192 -33.631708385384 65.627920928447 -43.513209677742 112.368322856036
0.180097000000 -39.734559204232 133.205846355382 -34.770867219001 -175.330132609506 -34.778808898991 -177.128236833840 -43.961398452153 113.678581062359
0.192096800000 -37.430264447397 -167.099572587870 -36.271113887669 -57.572275095686 -36.266419643840 -59.263517479407 -40.578379002925 172.881705673866
0.204096600000 -39.673885752188 116.223459300208 -36.830086573069 60.179826013819 -36.827075099467 58.489334300376 -43.054033911294 147.383827672068
0.216096400000 -35.462534912831 117.785172354893 -38.146221001609 176.279583978790 -38.138232328816 174.451259599851 -35.984820574230 138.030013531072
0.228096200000 -37.358813676457 109.775979137217 -39.302527503146 -65.005917176523 -39.295039648631 -66.818776104173 -36.311376169938 127.729993720585
0.240096000000 -35.389923988659 123.559465523808 -40.611799818045 54.803999969804 -40.601332471000 53.041534071923 -40.985463324831 125.315312270189
0.252095800000 -33.343738042476 123.656233129980 -41.342559164088 171.521979666019 -41.327555487504 169.883552896010 -37.987420353929 127.813201173078
0.264095600000 -37.250373563244 119.580786392138 -42.698463487291 -71.553312918573 -42.670960434860 -73.149388264962 -36.506743736892 123.983142771461
0.276095400000 -32.285479207524 149.801414861404 -43.846279509906 44.532243950722 -43.817568880589 42.833940309913 -30.930684875056 77.693357878974
0.288095200000 -35.475697190311 135.996488801185 -44.337052033425 170.745017234940 -44.325218583580 169.075517962463 -37.493638691596 137.951923481722
0.300095000000 -34.574272068984 121.576179082087 -45.041460699076 -70.574633298615 -45.030914536412 -72.176847357005 -37.220360959457 117.486776974227
0.312094800000 -36.698260678311 132.892891378277 -46.142522269335 46.287258469128 -46.118989310666 44.773160549743 -35.885402463107 131.726396529654
0.324094600000 -38.163793639993 123.876102925493 -47.802062020460 166.714872967388 -47.740198982906 165.063545670626 -33.410913094873 141.766246552457
0.336094400000 -33.798317685638 125.040648529763 -49.063033209691 -71.339352836291 -48.988696419057 -73.187304483182 -35.664161104774 122.846903478124
0.348094200000 -31.276880043590 117.395934423112 -48.990292839448 44.991555257038 -48.945007169865 43.284361477888 -32.326714990348 114.379513714618
0.360094000000 -32.384057361697 105.127781124277 -50.577280452791 161.716828389016 -50.538853122860 160.086721276149 -36.606776111796 113.023065002179
0.372093800000 -35.295750157361 125.750257463307 -51.005755656819 -76.813969310497 -50.944466167655 -78.187488736246 -38.724911280037 92.348243698658
0.384093600000 -32.118198475132 92.931094146356 -52.607928374146 49.301373159143 -52.481601902027 47.753670400291 -37.957662258429 97.038294835280
0.396093400000 -31.265266189702 98.681997155012 -52.043902078139 157.280820874836 -51.950750981738 155.434427895700 -36.295635575238 105.802945460987
0.408093200000 -31.327425536922 65.826236231258 -53.581959565661 -75.915349873172 -53.541286671183 -77.702266134760 -36.757750656828 127.676239340784
0.420093000000 -42.409748463512 99.383867358024 -53.698914682273 46.909429001709 -53.608583861975 45.490081410681 -37.093729451280 104.158686341358
0.432092800000 -34.087137096730 90.934255175189 -53.928473382938 167.165542658008 -53.754399775485 165.900336850648 -31.591073395858 104.606056385548
0.444092600000 -32.357693596536 101.316668705914 -56.199229065049 -68.134712311283 -56.006009360491 -69.933070679023 -32.194760505609 82.433567466926
0.456092400000 -31.277120663769 98.579024431553 -57.265165733059 48.583471158601 -57.097099762123 46.452467523529 -33.073037711654 91.384214587787
0.468092200000 -33.513750134872 93.872408619902 -57.655329914807 170.566966199077 -57.560508537922 169.084702446130 -36.119306345259 90.260433507872
0.480092000000 -32.213639924247 103.317248166213 -58.566783281951 -79.555178801168 -58.427803303895 -80.465735222632 -35.427620045581 87.242149304142
0.492091800000 -32.638668220580 93.947766449235 -58.308940389710 62.943370780067 -58.041727004537 61.586597010838 -37.107672515006 103.621145963415
0.504091600000 -32.362111408705 84.085590085132 -59.030941914926 -179.943858752010 -58.773338307161 177.844084598333 -33.884541723707 92.391687232467
0.516091400000 -33.251563390393 76.557150804628 -59.302497148471 -75.660408578752 -59.109169608709 -78.017451183585 -33.247913773184 94.328385131079
0.528091200000 -31.935709498170 77.827133417717 -58.653931040578 41.242936214172 -58.522027510944 39.853157819344 -34.833602759255 101.840504569985
0.540091000000 -32.143346856410 77.503372596686 -63.147843617654 -178.263043445378 -62.869017485620 -178.312925272541 -33.783262963669 114.832327874287
0.552090800000 -32.377867851941 82.212269542948 -62.680147865353 -70.637105907873 -62.227914291328 -72.113357961903 -33.411243001505 85.916456995750
0.564090600000 -32.091140656325 74.744977561680 -65.398493383862 41.445469833660 -65.110021884617 38.400458876225 -31.554117739267 103.229938150709
0.576090400000 -34.006523315356 76.846691880568 -62.451493752884 178.233157897982 -62.300617415470 176.712681500798 -30.941563172717 106.974323821951
0.588090200000 -30.036103399018 83.858839444715 -64.150059287630 -63.762247462507 -64.092912509880 -63.970112042178 -30.837828366896 85.484692314949
0.600090000000 -31.747038013866 72.037675929334 -67.277943126049 52.429373395301 -67.024157222552 54.227099805619 -30.623181757946 90.510367796272
0.612089800000 -32.496906813222 73.026130780741 -64.611247176966 -174.530972750066 -64.244833202985 -176.341365206730 -33.307620276737 85.388800352457
0.624089600000 -30.398973380397 81.333476748772 -70.213447706142 -71.473877067391 -70.020731851946 -75.417683648503 -30.860757479088 97.168779237998
0.636089400000 -31.672705577415 71.718805786087 -64.773726838283 64.945132796862 -64.847190582330 62.897740672877 -30.310497150332 91.204761998867
0.648089200000 -30.287439709182 90.196282910941 -67.576453035897 167.178303285599 -67.606842905850 167.699638008741 -28.523801329275 98.117780377563
0.660089000000 -28.550617611206 83.919528819618 -67.904214095135 -54.880337489129 -67.516345921154 -53.557608564075 -27.830694691077 70.557686333599
0.672088800000 -31.383276673094 73.178582607502 -68.821021798579 68.781762436279 -68.580009109657 67.050888918326 -30.288557743096 72.619392701145
0.684088600000 -29.060264859391 86.150443037297 -67.973633367897 -173.724862602000 -68.012798403879 -176.331598096790 -29.637556990194 69.998074270174
0.696088400000 -29.478223219218 54.907509119563 -69.250361088575 -47.950098884215 -69.776840423637 -49.186601816255 -30.781851472693 53.638197838267
0.708088200000 -32.756383382236 73.963391676001 -75.438691326554 99.446381179715 -74.970501778381 102.936667206474 -33.789863992109 59.893665707786
0.720088000000 -34.944981777583 50.636571029691 -71.165642953819 -177.345775272055 -70.475332203332 -177.407578097127 -30.208678685466 73.730044248329
0.732087800000 -31.542779701025 76.777440341112 -69.854978897134 -25.666512451532 -69.535432912290 -29.096850112293 -31.741354160441 69.631077926672
0.744087600000 -30.784296794338 58.823708055182 -73.416951075882 66.477253653317 -74.060353367810 62.171881802234 -30.947515640540 68.356559261918
0.756087400000 -31.151697801573 72.568956598137 -77.165301083334 176.107353499130 -78.698105486139 171.903248669840 -29.137018864599 82.410217817464
0.768087200000 -29.305300613820 71.411199972158 -75.100797806350 -40.631338164040 -74.607605742246 -35.726522177795 -27.702014895421 66.052855119556
0.780087000000 -30.338275494656 75.506574221540 -73.357645286729 87.716171714533 -72.932771476914 85.534389947378 -28.221262053067 54.937063562872
0.792086800000 -29.228659071374 71.131288491155 -77.237537011905 -169.611806309477 -76.963830644158 -178.969197690152 -30.405473484485 55.495558025727
0.804086600000 -30.802664217263 61.905456313316 -72.897973526947 -21.288427865489 -73.950384043649 -22.895981971873 -30.829918835938 56.698309438550
0.816086400000 -29.876805133059 71.525375792504 -76.562872395018 103.299204746722 -77.197556690278 109.791125293156 -33.036743906521 63.873841622930
0.828086200000 -30.192200927521 62.489652530702 -79.013397113535 162.156007774694 -79.211785800996 170.615610121016 -29.712612263959 62.804016081620
0.840086000000 -30.051431063287 65.748576001311 -70.411860894852 -90.340660850300 -69.815399868854 -90.132253157652 -31.275967436235 54.233590294467
0.852085800000 -27.853534716242 55.778110155428 -74.124202630270 107.414751427387 -75.004581644048 104.076419204948 -31.533306871376 71.454683637743
0.864085600000 -29.203019511856 47.760661125282 -75.872172145752 -120.031585493270 -76.679110436477 -116.830010896706 -28.217576904575 68.308261790019
0.876085400000 -29.359258292255 52.207879591172 -84.218478045386 -73.847983321843 -87.086543522027 -58.347474958583 -30.509049867489 64.991816086455
0.888085200000 -30.532506703551 50.708199966997 -71.577544824242 120.071120382186 -71.031271191092 119.145484171262 -28.111042075355 72.479351412960
0.900085000000 -29.047869748489 63.148126957946 -84.717206544545 -33.382463242791 -87.582098928972 -36.148898606940 -28.971652432993 55.423088795374
0.912084800000 -27.056225355016 55.527868534496 -75.555350208132 -33.045483173939 -76.463216403985 -40.625679169659 -29.260695631736 56.407188336382
0.924084600000 -28.841958222613 48.578424402767 -84.013894201565 54.378752284302 -88.573506119732 46.230570720924 -29.246626168849 67.622795319348
0.936084400000 -28.919618138046 56.605030257077 -80.000131870367 156.922409037834 -81.541039314026 172.850208709872 -28.495573171637 58.146994564377
0.948084200000 -28.212760911105 56.790600994472 -97.949932515923 -115.927705923685 -90.842498909284 -63.296716321133 -28.740604183232 57.128978874003
0.960084000000 -27.542712030639 54.910392401870 -82.637001274346 89.604625593425 -82.244129359198 68.732513827826 -28.634795259766 53.715696818167
0.972083800000 -26.696902252592 53.451980742516 -77.616107679607 169.747913863906 -78.471360592435 158.946405058274 -26.972887766859 56.160286163444
0.984083600000 -28.119603924978 56.150507397419 -79.528794645054 -8.661454737796 -80.142001842600 4.111139733351 -27.758109086114 52.302001173241
0.996083400000 -28.113657580414 60.433064563868 -81.312588007387 125.194821705425 -79.076324088324 128.180270843613 -27.416377008053 61.944060171811
1.008083200000 -27.586711076771 61.257552661484 -83.250640707347 -124.115827484248 -81.877837458529 -137.966669980784 -26.628821899024 52.467425432354
1.020083000000 -27.258735483369 50.370635081521 -89.171900324200 -39.526542366736 -87.268554708164 -69.490418016480 -27.980640805247 52.804500128419
1.032082800000 -28.027323147123 49.232178414022 -82.036055328490 71.149101561596 -84.856325435427 62.338085721657 -28.089641549817 48.933101693779
1.044082600000 -29.474422094176 49.362439850353 -84.507474428636 -59.415376851843 -81.726364780538 -53.109486357902 -28.236516573915 44.893487051498
1.056082400000 -27.321104876010 48.015510479285 -86.479611064150 119.830923303434 -86.642689064798 92.731081255582 -28.029982810338 42.593661153635
1.068082200000 -26.502229264835 44.257441265770 -74.542526652797 117.544771017977 -74.007318295373 113.110390142364 -28.102515544539 40.288593062740
1.080082000000 -26.052566423413 48.244119866027 -75.972769729137 -33.604838719039 -76.796234840114 -28.397089833115 -28.235583452842 47.498844426593
1.092081800000 -25.787386194585 36.935671183868 -79.950017015871 22.936852027027 -80.817905178145 36.725521837349 -27.683906762670 46.830501407701
1.104081600000 -28.306755010790 39.891227274287 -86.591526490173 119.806951366014 -84.911322887118 139.209835018545 -28.628601291741 42.551598825947
1.116081400000 -26.635112579476 39.171915092825 -85.694320536043 -135.740527900043 -82.652663271077 -139.647313791133 -27.549216728917 42.053520573899
1.128081200000 -26.624595904019 38.947899406586 -88.883625091148 -53.699979895223 -86.376086861650 -65.108708897997 -27.672766040578 42.941180618579
1.140081000000 -26.594915005041 34.294961332032 -83.615130867135 -8.370815463255 -81.699785815836 -18.008571264634 -27.400748788098 33.434229398937
1.152080800000 -26.435782123797 35.790321989301 -83.283567817911 -69.896950589707 -81.802095867006 -56.718734118355 -28.201930485824 47.783071829116
1.164080600000 -26.118978532037 39.293732638855 -79.176097634258 39.530120473508 -77.197384428177 35.297144057377 -26.730336278071 43.679949632986
1.176080400000 -25.779898854827 28.630549385347 -83.316829976673 -173.542319750664 -85.225862519757 162.883028126680 -25.858050257959 39.073642771063
1.188080200000 -26.204549282189 35.539416868229 -88.901779861064 108.757396975904 -85.105035047660 109.999311473100 -25.786031236304 28.723461076089
1.200080000000 -26.877504817278 32.917704839793 -85.069742092977 138.299275651823 -81.094608499378 141.249604147559 -27.747202696290 32.225565315359
1.212079800000 -27.403240109571 38.494892482759 -79.904483084367 167.486036364320 -78.168365925318 167.775642637560 -28.041084344738 32.562107608085
1.224079600000 -27.518658367238 31.846929491930 -79.057255879342 -139.577570361155 -78.483934745260 -139.665865904745 -26.911621307457 41.378801139440
1.236079400000 -26.224835214308 32.400709233899 -82.404628483307 -119.685009903405 -81.833304552775 -119.689968595126 -25.568988838070 28.632317658669
1.248079200000 -26.769071897596 28.591982928974 -90.620210706507 -121.668624510163 -91.402748155163 -101.746400627001 -28.609460158360 29.734701677139
1.260079000000 -25.839529119893 30.384744166187 -81.049466792339 -98.182668568267 -81.938341020362 -90.811489245906 -28.379518970775 37.417439572899
1.272078800000 -25.915515136242 35.723976790557 -88.116546007837 153.741258237850 -87.013724941304 137.088607248584 -25.790557473581 28.208255352911
1.284078600000 -25.311063779139 27.860212125013 -98.157750961616 -157.865472779345 -92.630116583298 170.860375045876 -27.853059537348 21.874736836064
1.296078400000 -25.930819455679 25.040409102201 -84.849043887905 36.289831210187 -85.758481936483 49.084352690141 -27.655581293297 35.784020912495
1.308078200000 -26.201947547675 23.888256760129 -75.735445312443 -16.102857233842 -77.159618126252 -20.740108860753 -27.881773354211 43.965969436596
1.320078000000 -26.677023715410 25.390617540127 -79.258372141103 15.765108985429 -80.426002117589 16.143181706244 -26.513617266763 41.698935311013
1.332077800000 -25.785091056683 28.704973244373 -77.463042001238 58.439094622679 -78.012082934997 59.185782590924 -25.839925450364 40.680337444911
1.344077600000 -25.593541462802 24.453675825827 -76.884141672287 82.301618678964 -77.588526514140 82.790995285686 -26.320719353967 35.534629671587
1.356077400000 -25.524463672300 22.582727771026 -79.749839280937 126.504679983192 -81.530799032514 130.953612376341 -26.316640485644 30.826613294843
1.368077200000 -26.367599350060 21.555305801480 -80.334787327209 129.744452076953 -80.841801994380 126.273163533498 -26.206426231802 27.074862539718
1.380077000000 -26.392057041688 22.994351518544 -81.920792636192 170.666122868074 -83.098659466296 168.377107409274 -26.725335039390 35.361134813435
1.392076800000 -26.940129528118 30.903557619871 -80.271160205900 175.078332818242 -79.636054706732 169.775003397187 -24.595474089202 27.299512884599
1.404076600000 -26.091396315973 29.132885947515 -81.913070205229 -157.423415800792 -81.276501916272 -162.343861141693 -25.095564503912 25.170165992966
1.416076400000 -25.454339940619 27.026887272450 -77.299732427521 -131.489514502960 -77.058587426251 -136.572644234742 -26.138048004824 23.393391902582
1.428076200000 -25.465904039853 20.459615196987 -76.893186859474 -58.835020617480 -77.545262067069 -66.261196454793 -25.366179197809 23.253771542587
1.440076000000 -25.364031987660 13.636453888861 -77.448103103238 -64.400534442216 -77.303653605777 -67.589708243205 -25.687841805863 24.235207375903
1.452075800000 -25.985026024606 14.590302368422 -79.424684411132 -57.314649220216 -78.953699769594 -55.880279330076 -24.277264636804 17.631848172546
1.464075600000 -24.916548703194 12.704150480876 -84.665653869786 48.327501417834 -83.818865243586 45.858096404987 -25.511195978789 10.783442320939
1.476075400000 -25.414120232888 13.940798296739 -81.992201664019 38.182087520472 -80.434194354046 46.777136662956 -25.838689439691 11.907224687388
1.488075200000 -26.198187865754 15.721012948914 -87.650632063095 105.246620037478 -83.984234602476 100.036453115737 -25.318617170334 16.830287898160
1.500075000000 -24.868297586939 18.387710014681 -86.817934735403 -5.585876529799 -89.814714121056 37.308618888743 -24.467760892390 14.489712455942
1.512074800000 -24.092901541882 14.158334323098 -79.718161994403 70.153075801806 -78.262601175949 85.545862172287 -26.430217894491 13.367555467855
1.524074600000 -24.887950271055 7.699393765425 -85.704650739013 -62.163865179551 -91.060639214847 -106.492749137579 -24.926414461136 18.829920371834
1.536074400000 -25.577602650858 2.658922474615 -88.706617683752 -118.584607982950 -85.191579901712 -139.984590921407 -26.207847806336 15.099228508123
1.548074200000 -25.541474524810 5.806429080039 -82.379736160111 -82.553692631941 -79.896776737098 -96.490502968390 -24.671919439185 16.510196022738
1.560074000000 -24.738287583238 11.373888340759 -85.518872660504 88.677240226209 -113.609592273908 40.336969026278 -24.974478055905 8.204743721412
1.572073800000 -24.195125446773 5.222299329985 -84.513723313044 148.730455606751 -90.729357082518 179.281446676315 -26.272859848673 4.992768751771
