# GHZ S RI R 50.000000000000
0.001000000000 -0.039438832925 0.093871936695 0.986657913909 0.017662946744 0.976778447933 0.003628640475 -0.032462047604 0.089204619220
0.001487781000 -0.042807119966 0.080463150721 0.987079736745 0.013040299409 0.981401733107 0.001228830773 -0.038760061370 0.075051537248
0.001975562000 -0.047237376301 0.068604893793 0.988584235988 0.010650410507 0.983597019143 0.000253128564 -0.043942960675 0.062816855455
0.002463343000 -0.050247942530 0.057767480527 0.988845885246 0.009759885030 0.984603384811 0.000147663071 -0.048010228716 0.052188139375
0.002951124000 -0.051484740915 0.047969156905 0.988781504465 0.010281391957 0.984596904125 0.000770913450 -0.049737442519 0.042439614519
0.003438905000 -0.050897576301 0.039087554611 0.988449809713 0.010642156018 0.985381502120 0.001922403633 -0.049592574611 0.033841524904
0.003926686000 -0.048245104096 0.030928233500 0.988297780361 0.011822401134 0.985496201164 0.003323274710 -0.047516006607 0.026098250504
0.004414467000 -0.044212476270 0.023969040557 0.987843567187 0.012638115742 0.985228399194 0.004294723018 -0.043942042660 0.019148971442
0.004902248000 -0.039040322968 0.018091860963 0.987425741870 0.013204014394 0.985017298943 0.005376283145 -0.038937152780 0.013353265659
0.005390029000 -0.032701149269 0.013625173523 0.987134365135 0.014123190722 0.985024841355 0.006448035048 -0.032963218527 0.008847528507
0.005877810000 -0.025874895484 0.010555013218 0.986601420780 0.014166310765 0.984799846157 0.006991174371 -0.026191850494 0.005786631719
0.006365591000 -0.018413512392 0.008823811011 0.986481462066 0.014405060863 0.984846271505 0.007338060443 -0.019025907955 0.003984436568
0.006853372000 -0.010696024341 0.008692323867 0.986360401817 0.014696979175 0.984973415027 0.007947466578 -0.011549017674 0.003644737441
0.007341153000 -0.007074345660 0.009373664274 0.986144559466 0.014816381154 0.985185297592 0.008288972144 -0.007867063743 0.004392003860
0.007828934000 -0.006946969382 0.010025697022 0.986116285105 0.015174705027 0.985049478301 0.008611423419 -0.007822029801 0.004938295263
0.008316715000 -0.006721107589 0.010395809765 0.986097494071 0.015278441678 0.985050615298 0.008266323094 -0.007800824369 0.005359465521
0.008804496000 -0.006544830019 0.010720465800 0.985929316950 0.015488528266 0.984968356101 0.008386831590 -0.007573946959 0.005837179179
0.009292277000 -0.006230611246 0.011018252970 0.985884285615 0.015556251909 0.985026517768 0.008300671411 -0.007404482287 0.006181637613
0.009780058000 -0.005938129276 0.011414316699 0.985809700270 0.016370352831 0.984941446821 0.009256706117 -0.007195084697 0.006453495755
0.010267839000 -0.005728498699 0.011692850659 0.985782995771 0.016586097906 0.985040934138 0.009242878445 -0.006959034986 0.006800560834
0.010755620000 -0.005510969364 0.011934383755 0.985657999311 0.016445009788 0.985104224206 0.009118278535 -0.006810655893 0.007080304870
0.011243401000 -0.005214955593 0.012182866345 0.985506055914 0.016516865604 0.985009702438 0.009167127312 -0.006685626717 0.007371613911
0.011731182000 -0.005008676876 0.012329059215 0.985616499462 0.016434696484 0.985070442944 0.009196534324 -0.006522439180 0.007649813838
0.012218963000 -0.004791933457 0.012522303561 0.985412494381 0.016756763316 0.984981533844 0.009276358126 -0.006268919299 0.007875342177
0.012706744000 -0.004527271560 0.012755053653 0.985408014807 0.016801452421 0.984883990917 0.009429359522 -0.006045637886 0.008046660764
0.013194525000 -0.004269887700 0.012866351983 0.985431900035 0.016825395287 0.985050385115 0.009478163103 -0.005861669535 0.008152610759
0.013682306000 -0.003990299192 0.012937776285 0.985311851892 0.016801418266 0.985049572816 0.009511370221 -0.005546896388 0.008251294913
0.014170087000 -0.003657898916 0.013030628984 0.985296451719 0.016877478594 0.984865121493 0.009216906217 -0.005351473761 0.008390376490
0.014657869000 -0.003333753761 0.013141186346 0.985246364442 0.016839041681 0.985184787562 0.009466254488 -0.005048383350 0.008502121252
0.015145650000 -0.002949456476 0.013202238899 0.985443563215 0.016908664408 0.985214268969 0.009468232438 -0.004732641359 0.008578696783
0.015633431000 -0.002735414142 0.013258401520 0.985421120076 0.016611337319 0.985242612350 0.009457121862 -0.004507049095 0.008555061615
0.016121212000 -0.002352399537 0.013239840938 0.985482300936 0.016692896020 0.985156382070 0.009196261853 -0.004177966090 0.008585513409
0.016608993000 -0.002077445306 0.013275992667 0.985580696661 0.016674900366 0.985106186088 0.009088282138 -0.003865019699 0.008612463092
0.017096774000 -0.001822166630 0.013268287283 0.985562746675 0.016106497312 0.985228544725 0.008853442374 -0.003662874422 0.008673999621
0.017584555000 -0.001408086771 0.013239849281 0.985559002604 0.016147531310 0.985327734892 0.009021631499 -0.003427279542 0.008705355503
0.018072336000 -0.001117264655 0.013161060837 0.985712549077 0.015978772362 0.985441252110 0.008965156271 -0.003093496804 0.008709455282
0.018560117000 -0.000752371273 0.013099404564 0.985690633069 0.015532069865 0.985361503251 0.008673107944 -0.002879617752 0.008693608712
0.019047898000 -0.000494542102 0.013000669631 0.985663766285 0.015139416800 0.985466971977 0.008406868372 -0.002614204709 0.008686062616
0.019535679000 -0.000243469254 0.013023684579 0.985722405922 0.015104019550 0.985433131867 0.008232511598 -0.002421020033 0.008678671410
0.020023460000 0.000052938346 0.012918092160 0.985674037404 0.014982526657 0.985478517324 0.008077766196 -0.002255307065 0.008674640866
0.020511241000 0.000378360088 0.012938307543 0.985594124328 0.014979531619 0.985573448930 0.007680370222 -0.002061461733 0.008716643271
0.020999022000 0.000695492421 0.012877767697 0.985660703306 0.014648485738 0.985426350550 0.007730697975 -0.001834846452 0.008783583479
0.021486803000 0.000914549778 0.012777471759 0.985819918717 0.014612880324 0.985505228796 0.007438370124 -0.001532867608 0.008646016058
0.021974584000 0.001154299725 0.012630340563 0.985784285972 0.014497104502 0.985619682139 0.007076648639 -0.001331346471 0.008550830804
0.022462365000 0.001471322927 0.012501697947 0.985606903857 0.014244644278 0.985431127986 0.006852755132 -0.001139928881 0.008577239511
0.022950146000 0.001735550129 0.012308554372 0.985654354220 0.014184391434 0.985532630680 0.006612073635 -0.000907716756 0.008630999628
0.023437927000 0.001932920013 0.012155977992 0.985656967527 0.013618465259 0.985553012450 0.006351035156 -0.000686519775 0.008573151519
0.023925708000 0.002163120877 0.011945745501 0.985555464621 0.013197232246 0.985446155582 0.006124913403 -0.000585979571 0.008533267588
0.024413489000 0.002419865441 0.011824191868 0.985459106559 0.013191907120 0.985478957421 0.006165067356 -0.000305091616 0.008490767477
0.024901270000 0.002715728887 0.011571579331 0.985475677166 0.012954616287 0.985305751058 0.005797981637 -0.000002802343 0.008412743353
0.025389051000 0.002975575092 0.012989769057 0.984799750669 0.012140163233 0.984709404581 0.003803973542 -0.000001893128 0.010491244960
0.025876832000 0.003207158138 0.012881681475 0.984880731254 0.011827294634 0.984678028708 0.003604655136 0.000178141050 0.010414494129
0.026364613000 0.003422560870 0.012578918153 0.984900567316 0.011848465867 0.984781053992 0.003430502592 0.000343525164 0.010217565946
0.026852394000 0.003672650295 0.012374570631 0.984959961143 0.011879942162 0.984876961467 0.003410085624 0.000552592321 0.010043665344
0.027340175000 0.003977940939 0.012131565860 0.984876702746 0.011857415046 0.984808065546 0.003903420482 0.000810855053 0.009725119134
0.027827956000 0.004141645017 0.011870683978 0.984954102499 0.011921246465 0.984828697621 0.003722206025 0.000985936199 0.009510264794
0.028315738000 0.004352617342 0.011562431611 0.985040582344 0.011720510891 0.985002590815 0.003897291329 0.001190367867 0.009219171800
0.028803519000 0.004530154878 0.011274028860 0.985035855273 0.011694489754 0.985073222011 0.003643456726 0.001352778862 0.008939271980
0.029291300000 0.004760308365 0.010932441822 0.985065871179 0.011363335213 0.985264225807 0.003682505562 0.001515830183 0.008570409239
0.029779081000 0.004955270653 0.010609029227 0.985230269812 0.011266267163 0.985500683799 0.003711858867 0.001722980796 0.008291007584
0.030266862000 0.005156742957 0.010286758188 0.985258677165 0.011156008082 0.985603945022 0.003817310086 0.001910585825 0.007890258204
0.030754643000 0.005316927744 0.010050604174 0.985354476325 0.011051101388 0.985558034026 0.003566847198 0.002080664218 0.007710510935
0.031242424000 0.005516844251 0.009848751756 0.985362502295 0.011168741776 0.985585611062 0.003649637329 0.002264531500 0.007574079663
0.031730205000 0.005768069253 0.009621228353 0.985199258277 0.011121499823 0.985450750020 0.003532100898 0.002483355213 0.007398433503
0.032217986000 0.005895509007 0.009527242749 0.985176450760 0.010631816093 0.985469249937 0.003098521152 0.002531981887 0.007264742276
0.032705767000 0.006041543407 0.009390909425 0.985173924538 0.010392925516 0.985504329487 0.002963888778 0.002675328627 0.007161484011
0.033193548000 0.006243176359 0.009270057139 0.985066133405 0.010260289940 0.985406445774 0.002587739739 0.002815295573 0.007049416603
0.033681329000 0.006442189710 0.009042262362 0.984912463829 0.010283318107 0.985323995312 0.002445113968 0.002962861081 0.006971647662
0.034169110000 0.006579134143 0.008902324527 0.984794628466 0.009905998141 0.985165519434 0.002063700253 0.003034253148 0.006938525114
0.034656891000 0.006783711076 0.008718826189 0.984663403890 0.009986150840 0.985075959903 0.002073303026 0.003326267315 0.006972156201
0.035144672000 0.006855506308 0.008604195982 0.984570417938 0.009753874753 0.985067888786 0.001565862521 0.003521213937 0.006944800914
0.035632453000 0.007005095151 0.008395430286 0.984403043624 0.009583123650 0.984928983080 0.001358832033 0.003704510533 0.006950286856
0.036120234000 0.007043737411 0.008212649674 0.984385178995 0.008832139312 0.984828943481 0.000896060599 0.003837536227 0.006924341269
0.036608015000 0.007178872705 0.007946809820 0.984218242892 0.008946707264 0.984704628658 0.000712851714 0.004026057700 0.006806443493
0.037095796000 0.007230688922 0.007745934109 0.983988347723 0.008646814305 0.984616256893 0.000268712281 0.004196126222 0.006714908234
0.037583577000 0.007365495676 0.007527573323 0.983865997417 0.008465630167 0.984526083702 0.000244733713 0.004311519790 0.006498281667
0.038071358000 0.007465796254 0.007241988897 0.983816944340 0.008419603356 0.984555223303 0.000327554381 0.004341430371 0.006366453628
0.038559139000 0.007528345423 0.007005562224 0.983856409514 0.008253802920 0.984418609578 0.000009766178 0.004457590825 0.006208923462
0.039046920000 0.007523347130 0.006764047124 0.983770138496 0.007948900713 0.984408821806 -0.000184570074 0.004496234810 0.006027485733
0.039534701000 0.007576242455 0.006484833076 0.983676546455 0.007846881686 0.984261820554 -0.000392792265 0.004643771466 0.005785458619
0.040022482000 0.007648132672 0.006206355824 0.983611120062 0.007758047137 0.984267698099 -0.000623177384 0.004666474091 0.005656523027
0.040510263000 0.007630207424 0.005898350567 0.983656430127 0.007915676937 0.984280221340 -0.000743252687 0.004711043915 0.005326049565
0.040998044000 0.007636227643 0.005619470577 0.983562742826 0.007440368879 0.984275597449 -0.000840623100 0.004732786459 0.005123796479
0.041485826000 0.007586237605 0.005430939303 0.983635610103 0.007031751149 0.984384714927 -0.001336502751 0.004733337680 0.004933012401
0.041973607000 0.007528121098 0.005247792625 0.983619710699 0.006809130853 0.984190346360 -0.001557976752 0.004752224774 0.004718710129
0.042461388000 0.007501106455 0.005050335918 0.983458090095 0.006378259775 0.984254199817 -0.001775273385 0.004818588460 0.004446049297
0.042949169000 0.007499686442 0.004803281602 0.983330587163 0.006185673694 0.984209802957 -0.002061322662 0.004867392587 0.004275421074
0.043436950000 0.007497067406 0.004560702250 0.983221175415 0.006144734841 0.984035504769 -0.001866767773 0.004912513381 0.004028566567
0.043924731000 0.007450143323 0.004316807894 0.983225911151 0.006386874378 0.984091872155 -0.001851609169 0.004947709745 0.003725564348
0.044412512000 0.007360880841 0.003909127478 0.983246817615 0.006491236170 0.984406730194 -0.001442296225 0.004930767081 0.003429199131
0.044900293000 0.007218718569 0.003691309253 0.983614268268 0.006793461159 0.984232622070 -0.001595675195 0.004903606476 0.003079781026
0.045388074000 0.007115999837 0.003352669932 0.983696805864 0.007368795457 0.984359656689 -0.001405643472 0.004878929004 0.002723499417
0.045875855000 0.006996419885 0.003070069361 0.983807106094 0.007218303321 0.984438576377 -0.001177253725 0.004762225231 0.002439154746
0.046363636000 0.006888306322 0.002920697243 0.983732276450 0.007450921799 0.984517869785 -0.000924815787 0.004713848741 0.002132210692
0.046851417000 0.006805522416 0.002605796011 0.983594707412 0.007190424779 0.984411710596 -0.001010172185 0.004702023002 0.001868816133
0.047339198000 0.006706174847 0.002438165035 0.983446943130 0.007092002264 0.984241518568 -0.001254902928 0.004671319685 0.001555959634
0.047826979000 0.006610794590 0.002241775894 0.983272728074 0.006797229881 0.984166602690 -0.001344328326 0.004579749480 0.001277181605
0.048314760000 0.006533019585 0.002017028691 0.983206432950 0.006268049398 0.983977889885 -0.001721644925 0.004553632704 0.001049711305
0.048802541000 0.006353932755 0.001901765393 0.983258836483 0.005830163275 0.983984786032 -0.002326132671 0.004469672192 0.000843698558
0.049290322000 0.006222035281 0.001701471696 0.983293692695 0.005737547983 0.983915589166 -0.002569129603 0.004386465249 0.000603936661
0.049778103000 0.006077175389 0.001437838106 0.983292617952 0.005603924128 0.984074845334 -0.002720040633 0.004342638861 0.000388478160
0.050265884000 0.005897377268 0.001158784610 0.983316924179 0.005388915685 0.984173057339 -0.002449561733 0.004227656841 0.000083022892
0.050753665000 0.005695271497 0.000948177828 0.983367638486 0.005475745145 0.984316599410 -0.002477775807 0.004089631781 -0.000179758450
0.051241446000 0.005555883428 0.000854424384 0.983416122150 0.005615186396 0.984325869524 -0.002738237693 0.003950779415 -0.000395121367
0.051729227000 0.005324192947 0.000638789601 0.983377989135 0.005465407885 0.984450234027 -0.002264907331 0.003797209072 -0.000736432469
0.052217008000 0.005147198174 0.000452259762 0.983458247029 0.005536851256 0.984313223263 -0.002506615571 0.003737858153 -0.000994099591
0.052704789000 0.004954844353 0.000271631487 0.983383986585 0.005018622493 0.984240832343 -0.002742410202 0.003699550758 -0.001149453226
0.053192570000 0.004775931511 0.000144423556 0.983298869704 0.004924824736 0.984244234539 -0.002779901788 0.003568402664 -0.001362869556
0.053680351000 0.004615194933 -0.000078045692 0.983399010640 0.004859222372 0.984191649009 -0.002903445851 0.003384468886 -0.001596080769
0.054168132000 0.004324943664 -0.000283825779 0.983318247810 0.004815565098 0.984300022243 -0.002669556440 0.003261933097 -0.001817968168
0.054655913000 0.004157417168 -0.000426949218 0.983276051433 0.004778133636 0.984221167140 -0.003019125560 0.003137140402 -0.001989401899
0.055143695000 0.003959764234 -0.000517215648 0.983199020096 0.004317191963 0.984086722249 -0.003259307473 0.003063020677 -0.002062454310
0.055631476000 0.003791741921 -0.000595131474 0.983276903357 0.004054782491 0.984095928117 -0.003562828657 0.002839240780 -0.002297696846
0.056119257000 0.003553056546 -0.000759321191 0.983234347294 0.003943598632 0.983954260294 -0.003660451614 0.002731104149 -0.002473763533
0.056607038000 0.003309927452 -0.000918038232 0.983197391003 0.003808349208 0.983843074796 -0.003889623676 0.002628369383 -0.002714590565
0.057094819000 0.003073823312 -0.001080103596 0.983131440152 0.003759832268 0.983908783124 -0.003992638585 0.002526006335 -0.002940698843
0.057582600000 0.002815680235 -0.001199750499 0.983101706620 0.003675676051 0.983917059060 -0.004089691548 0.002293629598 -0.003134240326
0.058070381000 0.002548944593 -0.001306407355 0.983120621882 0.003744103945 0.983922778234 -0.004325601817 0.002154120498 -0.003298301820
0.058558162000 0.002279911661 -0.001456187186 0.983093582902 0.003508889426 0.983898447816 -0.004246311766 0.001955125905 -0.003478054532
0.059045943000 0.002099867032 -0.001498140483 0.983212545464 0.003509705076 0.983893062603 -0.004507500771 0.001776498142 -0.003661728676
0.059533724000 0.001787155127 -0.001661701989 0.983227566852 0.003459315066 0.983958210665 -0.004509286861 0.001640644161 -0.003805680707
0.060021505000 0.001588833263 -0.001707629840 0.983267199623 0.003333504834 0.984035942509 -0.004696310947 0.001499547574 -0.003965642093
0.060509286000 0.001324404358 -0.001754907412 0.983253524099 0.002903953547 0.984126405916 -0.004710289430 0.001385163607 -0.004100124784
0.060997067000 0.001133987163 -0.001821809434 0.983435531841 0.002917856824 0.984235534094 -0.004808651169 0.001250282862 -0.004211468011
0.061484848000 0.000863976801 -0.001724509634 0.983399279063 0.002846129359 0.984463590745 -0.004611935616 0.000995455525 -0.004230043809
0.061972629000 0.000396135989 -0.001577206034 0.983651242145 0.003237725630 0.984484198457 -0.004002523226 0.000532402630 -0.004123263061
0.062460410000 0.000062846561 -0.001731248776 0.983276025935 0.003439956868 0.984217114335 -0.003720090158 0.000379376296 -0.004201850392
0.062948191000 -0.000172088521 -0.001902164862 0.983067333553 0.003404026950 0.984033114359 -0.003701245689 0.000168751194 -0.004389866687
0.063435972000 -0.000437387845 -0.001999156235 0.983110328455 0.003419600519 0.983815032250 -0.004013096210 -0.000031465780 -0.004630588289
0.063923753000 -0.000609377899 -0.002022680567 0.982969727442 0.002954121856 0.983721125302 -0.004270934488 -0.000213703378 -0.004791000721
0.064411534000 -0.000860672032 -0.002088918138 0.982884626398 0.002605146312 0.983726834068 -0.004259846810 -0.000387325152 -0.004882473483
0.064899315000 -0.001117326939 -0.002112728039 0.982786245733 0.002554206434 0.983744008297 -0.004382146826 -0.000599149345 -0.005009301798
0.065387096000 -0.001420240953 -0.002183137220 0.982835025814 0.002827353544 0.983640946708 -0.004699169604 -0.000650710985 -0.005053468794
0.065874877000 -0.001596765197 -0.002179961523 0.982779421344 0.002954372895 0.983580621173 -0.005255813376 -0.000659233515 -0.005109642556
0.066362658000 -0.001905239692 -0.002205609231 0.982782658076 0.002879780931 0.983813303635 -0.005036787402 -0.000944566305 -0.005167117555
0.066850439000 -0.002085425175 -0.002232090128 0.982777026049 0.002859524874 0.983594386600 -0.005233680592 -0.001186743244 -0.005244969873
0.067338220000 -0.002323249389 -0.002192945273 0.982842746690 0.002606299339 0.983729629561 -0.005384220559 -0.001506945472 -0.005237726998
0.067826001000 -0.002612481644 -0.002159052627 0.982838810402 0.002353044690 0.983794254222 -0.005172405086 -0.001754828600 -0.005308902480
0.068313782000 -0.002820033037 -0.002118142288 0.982752310070 0.002291798161 0.983780059284 -0.005231229438 -0.001977504605 -0.005342854246
0.068801564000 -0.003106144666 -0.002086795405 0.982832222344 0.001945541214 0.983707422206 -0.005076468183 -0.002285762786 -0.005339973643
0.069289345000 -0.003336971552 -0.002069029265 0.982823650913 0.001586941167 0.983640106113 -0.004776965856 -0.002428003557 -0.005321061307
0.069777126000 -0.003657187184 -0.002035567533 0.982702250268 0.001367508722 0.983682171147 -0.004514982389 -0.002584390246 -0.005388177891
0.070264907000 -0.003962104879 -0.001970365693 0.982773046620 0.001452258848 0.983637495634 -0.004401427792 -0.002797664860 -0.005327348254
0.070752688000 -0.004189362282 -0.001872766860 0.982766348761 0.001208884478 0.983606547506 -0.004607615187 -0.003023888980 -0.005274610662
